;$FILEVERSION=2.0
;$STARTTIME=45051.5697609259
;$COLUMNS=N,O,T,I,d,l,D
;
;   Start time: 05/05/2023 13:40:27.344.0
;   Generated by PCAN-View v4.3.4.615
;-------------------------------------------------------------------------------
;   Connection                 Bit rate
;   PCANLight_USB_16@pcan_usb  500 kBit/s
;-------------------------------------------------------------------------------
;   Message   Time    Type ID     Rx/Tx
;   Number    Offset  |    [hex]  |  Data Length
;   |         [ms]    |    |      |  |  Data [hex] ...
;   |         |       |    |      |  |  |
;---+-- ------+------ +- --+----- +- +- +- +- -- -- -- -- -- -- --
     97       484.855 DT     0001 Rx 8  00 00 34 56 DE AD BE EF 
    102       506.753 DT     0001 Rx 8  01 01 34 56 DE AD BE EF 
    107       528.755 DT     0001 Rx 8  02 01 34 56 DE AD BE EF 
    113       550.743 DT     0001 Rx 8  03 02 34 56 DE AD BE EF 
    119       572.867 DT     0001 Rx 8  04 02 34 56 DE AD BE EF 
    124       594.747 DT     0001 Rx 8  05 02 34 56 DE AD BE EF 
    129       616.749 DT     0001 Rx 8  06 02 34 56 DE AD BE EF 
    134       638.743 DT     0001 Rx 8  07 03 34 56 DE AD BE EF 
    140       660.878 DT     0001 Rx 8  08 03 34 56 DE AD BE EF 
    146       682.872 DT     0001 Rx 8  09 03 34 56 DE AD BE EF 
    151       704.870 DT     0001 Rx 8  0A 03 34 56 DE AD BE EF 
    156       726.965 DT     0001 Rx 8  0B 04 34 56 DE AD BE EF 
    161       748.972 DT     0001 Rx 8  0C 04 34 56 DE AD BE EF 
    167       770.964 DT     0001 Rx 8  0D 05 34 56 DE AD BE EF 
    173       792.972 DT     0001 Rx 8  0E 05 34 56 DE AD BE EF 
    178       814.969 DT     0001 Rx 8  0F 05 34 56 DE AD BE EF 
    183       836.961 DT     0001 Rx 8  10 05 34 56 DE AD BE EF 
    188       858.954 DT     0001 Rx 8  11 06 34 56 DE AD BE EF 
    194       880.960 DT     0001 Rx 8  12 06 34 56 DE AD BE EF 
    200       902.952 DT     0001 Rx 8  13 06 34 56 DE AD BE EF 
    205       924.952 DT     0001 Rx 8  14 06 34 56 DE AD BE EF 
    210       946.966 DT     0001 Rx 8  15 07 34 56 DE AD BE EF 
    215       968.959 DT     0001 Rx 8  16 07 34 56 DE AD BE EF 
    221       990.952 DT     0001 Rx 8  17 08 34 56 DE AD BE EF 
    227      1012.960 DT     0001 Rx 8  18 08 34 56 DE AD BE EF 
    232      1034.954 DT     0001 Rx 8  19 08 34 56 DE AD BE EF 
    237      1056.948 DT     0001 Rx 8  1A 08 34 56 DE AD BE EF 
    242      1078.958 DT     0001 Rx 8  1B 09 34 56 DE AD BE EF 
    248      1100.958 DT     0001 Rx 8  1C 09 34 56 DE AD BE EF 
    254      1122.940 DT     0001 Rx 8  1D 09 34 56 DE AD BE EF 
    259      1144.959 DT     0001 Rx 8  1E 09 34 56 DE AD BE EF 
    328      1486.957 DT     0001 Rx 8  00 00 34 56 DE AD BE EF 
    338      1530.823 DT     0001 Rx 8  02 00 34 56 DE AD BE EF 
    356      1619.049 DT     0001 Rx 8  06 00 34 56 DE AD BE EF 
    368      1671.062 DT     0001 Rx 8  1F 00 34 56 DE AD BE EF 
    374      1693.050 DT     0001 Rx 8  20 00 34 56 DE AD BE EF 
    377      1707.059 DT     0001 Rx 8  0A 00 34 56 DE AD BE EF 
    380      1714.952 DT     0001 Rx 8  21 01 34 56 DE AD BE EF 
    385      1736.954 DT     0001 Rx 8  22 01 34 56 DE AD BE EF 
    390      1750.970 DT     0001 Rx 8  0C 02 34 56 DE AD BE EF 
    391      1759.942 DT     0001 Rx 8  23 02 34 56 DE AD BE EF 
    398      1783.950 DT     0001 Rx 8  24 03 34 56 DE AD BE EF 
    403      1805.947 DT     0001 Rx 8  25 03 34 56 DE AD BE EF 
    408      1828.944 DT     0001 Rx 8  26 04 34 56 DE AD BE EF 
    411      1837.943 DT     0001 Rx 8  10 04 34 56 DE AD BE EF 
    416      1852.947 DT     0001 Rx 8  27 05 34 56 DE AD BE EF 
    421      1875.941 DT     0001 Rx 8  28 05 34 56 DE AD BE EF 
    432      1925.825 DT     0001 Rx 8  14 06 34 56 DE AD BE EF 
    443      1970.933 DT     0001 Rx 8  16 06 34 56 DE AD BE EF 
    460      2057.820 DT     0001 Rx 8  1A 06 34 56 DE AD BE EF 
    479      2146.801 DT     0001 Rx 8  1E 06 34 56 DE AD BE EF 
    481      2150.937 DT     0001 Rx 8  29 07 34 56 DE AD BE EF 
    487      2172.938 DT     0001 Rx 8  2A 07 34 56 DE AD BE EF 
    492      2194.928 DT     0001 Rx 8  2B 07 34 56 DE AD BE EF 
    497      2216.804 DT     0001 Rx 8  2C 07 34 56 DE AD BE EF 
    502      2238.808 DT     0001 Rx 8  2D 08 34 56 DE AD BE EF 
    508      2260.930 DT     0001 Rx 8  2E 08 34 56 DE AD BE EF 
    514      2282.920 DT     0001 Rx 8  2F 08 34 56 DE AD BE EF 
    519      2304.922 DT     0001 Rx 8  30 08 34 56 DE AD BE EF 
    524      2326.801 DT     0001 Rx 8  31 09 34 56 DE AD BE EF 
    529      2348.791 DT     0001 Rx 8  32 09 34 56 DE AD BE EF 
    602      2708.889 DT     0001 Rx 8  0A 00 34 56 DE AD BE EF 
    609      2739.007 DT     0001 Rx 8  22 00 34 56 DE AD BE EF 
    615      2760.875 DT     0001 Rx 8  23 01 34 56 DE AD BE EF 
    625      2807.878 DT     0001 Rx 8  25 01 34 56 DE AD BE EF 
    632      2839.885 DT     0001 Rx 8  10 02 34 56 DE AD BE EF 
    641      2876.878 DT     0001 Rx 8  28 02 34 56 DE AD BE EF 
    642      2877.114 DT     0001 Rx 8  33 03 34 56 DE AD BE EF 
    647      2899.875 DT     0001 Rx 8  34 03 34 56 DE AD BE EF 
    654      2922.867 DT     0001 Rx 8  35 04 34 56 DE AD BE EF 
    659      2945.865 DT     0001 Rx 8  36 04 34 56 DE AD BE EF 
    664      2968.870 DT     0001 Rx 8  37 05 34 56 DE AD BE EF 
    671      2991.876 DT     0001 Rx 8  38 05 34 56 DE AD BE EF 
    676      3014.998 DT     0001 Rx 8  39 05 34 56 DE AD BE EF 
    681      3036.866 DT     0001 Rx 8  3A 05 34 56 DE AD BE EF 
    704      3147.990 DT     0001 Rx 8  1E 06 34 56 DE AD BE EF 
    719      3218.987 DT     0001 Rx 8  2C 06 34 56 DE AD BE EF 
    738      3306.973 DT     0001 Rx 8  30 07 34 56 DE AD BE EF 
    741      3311.975 DT     0001 Rx 8  3B 07 34 56 DE AD BE EF 
    746      3335.977 DT     0001 Rx 8  3C 07 34 56 DE AD BE EF 
    750      3350.973 DT     0001 Rx 8  32 07 34 56 DE AD BE EF 
    752      3358.980 DT     0001 Rx 8  3D 07 34 56 DE AD BE EF 
    758      3380.977 DT     0001 Rx 8  3E 07 34 56 DE AD BE EF 
    764      3402.977 DT     0001 Rx 8  3F 07 34 56 DE AD BE EF 
    769      3424.975 DT     0001 Rx 8  40 07 34 56 DE AD BE EF 
    774      3446.985 DT     0001 Rx 8  41 08 34 56 DE AD BE EF 
    779      3468.968 DT     0001 Rx 8  42 08 34 56 DE AD BE EF 
    785      3490.974 DT     0001 Rx 8  43 09 34 56 DE AD BE EF 
    791      3512.971 DT     0001 Rx 8  44 09 34 56 DE AD BE EF 
    796      3534.967 DT     0001 Rx 8  45 09 34 56 DE AD BE EF 
    801      3556.961 DT     0001 Rx 8  46 09 34 56 DE AD BE EF 
    839      3740.967 DT     0001 Rx 8  22 00 34 56 DE AD BE EF 
    853      3808.835 DT     0001 Rx 8  25 00 34 56 DE AD BE EF 
    859      3830.871 DT     0001 Rx 8  47 01 34 56 DE AD BE EF 
    865      3852.831 DT     0001 Rx 8  48 01 34 56 DE AD BE EF 
    870      3874.961 DT     0001 Rx 8  49 01 34 56 DE AD BE EF 
    871      3877.956 DT     0001 Rx 8  28 01 34 56 DE AD BE EF 
    876      3896.958 DT     0001 Rx 8  4A 02 34 56 DE AD BE EF 
    879      3901.961 DT     0001 Rx 8  34 02 34 56 DE AD BE EF 
    882      3918.953 DT     0001 Rx 8  4B 02 34 56 DE AD BE EF 
    888      3940.953 DT     0001 Rx 8  4C 02 34 56 DE AD BE EF 
    890      3946.955 DT     0001 Rx 8  36 02 34 56 DE AD BE EF 
    895      3962.955 DT     0001 Rx 8  4D 02 34 56 DE AD BE EF 
    900      3984.819 DT     0001 Rx 8  4E 02 34 56 DE AD BE EF 
    905      4006.949 DT     0001 Rx 8  4F 02 34 56 DE AD BE EF 
    910      4028.839 DT     0001 Rx 8  50 03 34 56 DE AD BE EF 
    913      4038.835 DT     0001 Rx 8  3A 03 34 56 DE AD BE EF 
    917      4050.816 DT     0001 Rx 8  51 04 34 56 DE AD BE EF 
    923      4072.828 DT     0001 Rx 8  52 04 34 56 DE AD BE EF 
    928      4094.816 DT     0001 Rx 8  53 04 34 56 DE AD BE EF 
    933      4116.950 DT     0001 Rx 8  54 04 34 56 DE AD BE EF 
    938      4138.826 DT     0001 Rx 8  55 05 34 56 DE AD BE EF 
    944      4160.828 DT     0001 Rx 8  56 05 34 56 DE AD BE EF 
    950      4182.814 DT     0001 Rx 8  57 05 34 56 DE AD BE EF 
    955      4204.819 DT     0001 Rx 8  58 05 34 56 DE AD BE EF 
    959      4220.810 DT     0001 Rx 8  2C 06 34 56 DE AD BE EF 
    961      4226.941 DT     0001 Rx 8  59 06 34 56 DE AD BE EF 
   1002      4426.943 DT     0001 Rx 8  40 07 34 56 DE AD BE EF 
   1012      4470.922 DT     0001 Rx 8  42 07 34 56 DE AD BE EF 
   1019      4500.808 DT     0001 Rx 8  5A 07 34 56 DE AD BE EF 
   1025      4522.902 DT     0001 Rx 8  5B 07 34 56 DE AD BE EF 
   1030      4544.805 DT     0001 Rx 8  5C 07 34 56 DE AD BE EF 
   1033      4558.808 DT     0001 Rx 8  46 07 34 56 DE AD BE EF 
   1036      4566.800 DT     0001 Rx 8  5D 08 34 56 DE AD BE EF 
   1041      4588.936 DT     0001 Rx 8  5E 08 34 56 DE AD BE EF 
   1047      4610.944 DT     0001 Rx 8  5F 09 34 56 DE AD BE EF 
   1053      4632.808 DT     0001 Rx 8  60 09 34 56 DE AD BE EF 
   1058      4655.799 DT     0001 Rx 8  61 09 34 56 DE AD BE EF 
   1063      4678.805 DT     0001 Rx 8  62 09 34 56 DE AD BE EF 
   1090      4809.888 DT     0001 Rx 8  25 00 34 56 DE AD BE EF 
   1105      4878.888 DT     0001 Rx 8  28 00 34 56 DE AD BE EF 
   1122      4955.880 DT     0001 Rx 8  63 01 34 56 DE AD BE EF 
   1127      4978.865 DT     0001 Rx 8  64 01 34 56 DE AD BE EF 
   1134      5007.875 DT     0001 Rx 8  4F 02 34 56 DE AD BE EF 
   1141      5039.871 DT     0001 Rx 8  3A 02 34 56 DE AD BE EF 
   1158      5118.864 DT     0001 Rx 8  54 03 34 56 DE AD BE EF 
   1177      5206.741 DT     0001 Rx 8  58 03 34 56 DE AD BE EF 
   1182      5227.867 DT     0001 Rx 8  59 04 34 56 DE AD BE EF 
   1189      5252.775 DT     0001 Rx 8  65 04 34 56 DE AD BE EF 
   1194      5275.858 DT     0001 Rx 8  66 04 34 56 DE AD BE EF 
   1199      5298.858 DT     0001 Rx 8  67 04 34 56 DE AD BE EF 
   1205      5320.904 DT     0001 Rx 8  68 05 34 56 DE AD BE EF 
   1211      5344.866 DT     0001 Rx 8  69 05 34 56 DE AD BE EF 
   1216      5366.729 DT     0001 Rx 8  6A 06 34 56 DE AD BE EF 
   1221      5388.743 DT     0001 Rx 8  6B 06 34 56 DE AD BE EF 
   1257      5560.735 DT     0001 Rx 8  46 07 34 56 DE AD BE EF 
   1264      5590.847 DT     0001 Rx 8  5E 07 34 56 DE AD BE EF 
   1280      5664.731 DT     0001 Rx 8  6C 07 34 56 DE AD BE EF 
   1284      5680.745 DT     0001 Rx 8  62 07 34 56 DE AD BE EF 
   1286      5686.726 DT     0001 Rx 8  6D 07 34 56 DE AD BE EF 
   1291      5708.792 DT     0001 Rx 8  6E 07 34 56 DE AD BE EF 
   1297      5730.922 DT     0001 Rx 8  6F 08 34 56 DE AD BE EF 
   1303      5752.788 DT     0001 Rx 8  70 08 34 56 DE AD BE EF 
   1308      5774.908 DT     0001 Rx 8  71 08 34 56 DE AD BE EF 
   1313      5795.901 DT     0001 Rx 8  72 08 34 56 DE AD BE EF 
   1318      5818.781 DT     0001 Rx 8  73 09 34 56 DE AD BE EF 
   1324      5841.017 DT     0001 Rx 8  74 09 34 56 DE AD BE EF 
   1330      5863.018 DT     0001 Rx 8  75 09 34 56 DE AD BE EF 
   1335      5881.021 DT     0001 Rx 8  28 00 34 56 DE AD BE EF 
   1336      5887.023 DT     0001 Rx 8  76 00 34 56 DE AD BE EF 
   1341      5909.019 DT     0001 Rx 8  77 00 34 56 DE AD BE EF 
   1347      5930.901 DT     0001 Rx 8  78 09 34 56 DE AD BE EF 
   1353      5952.889 DT     0001 Rx 8  79 09 34 56 DE AD BE EF 
   1358      5975.019 DT     0001 Rx 8  7A 09 34 56 DE AD BE EF 
   1359      5979.885 DT     0001 Rx 8  64 01 34 56 DE AD BE EF 
   1364      5996.894 DT     0001 Rx 8  7B 09 34 56 DE AD BE EF 
   1369      6018.900 DT     0001 Rx 8  7C 09 34 56 DE AD BE EF 
   1375      6040.895 DT     0001 Rx 8  3A 02 34 56 DE AD BE EF 
   1409      6209.005 DT     0001 Rx 8  58 02 34 56 DE AD BE EF 
   1428      6293.001 DT     0001 Rx 8  7D 03 34 56 DE AD BE EF 
   1429      6300.006 DT     0001 Rx 8  67 03 34 56 DE AD BE EF 
   1434      6315.004 DT     0001 Rx 8  7E 04 34 56 DE AD BE EF 
   1439      6337.001 DT     0001 Rx 8  7F 04 34 56 DE AD BE EF 
   1442      6347.006 DT     0001 Rx 8  69 05 34 56 DE AD BE EF 
   1445      6358.883 DT     0001 Rx 8  80 05 34 56 DE AD BE EF 
   1453      6390.870 DT     0001 Rx 8  6B 06 34 56 DE AD BE EF 
   1503      6632.981 DT     0001 Rx 8  81 06 34 56 DE AD BE EF 
   1508      6654.983 DT     0001 Rx 8  82 06 34 56 DE AD BE EF 
   1513      6676.986 DT     0001 Rx 8  83 06 34 56 DE AD BE EF 
   1521      6710.893 DT     0001 Rx 8  6E 07 34 56 DE AD BE EF 
   1539      6796.885 DT     0001 Rx 8  72 07 34 56 DE AD BE EF 
   1563      6910.749 DT     0001 Rx 8  77 00 34 56 DE AD BE EF 
   1572      6950.871 DT     0001 Rx 8  84 00 34 56 DE AD BE EF 
   1578      6972.758 DT     0001 Rx 8  85 00 34 56 DE AD BE EF 
   1580      6980.776 DT     0001 Rx 8  64 00 34 56 DE AD BE EF 
   1584      6994.746 DT     0001 Rx 8  86 01 34 56 DE AD BE EF 
   1589      7016.755 DT     0001 Rx 8  87 01 34 56 DE AD BE EF 
   1591      7020.845 DT     0001 Rx 8  7C 08 34 56 DE AD BE EF 
   1595      7039.752 DT     0001 Rx 8  88 08 34 56 DE AD BE EF 
   1602      7062.911 DT     0001 Rx 8  89 09 34 56 DE AD BE EF 
   1632      7210.860 DT     0001 Rx 8  58 02 34 56 DE AD BE EF 
   1651      7300.734 DT     0001 Rx 8  67 02 34 56 DE AD BE EF 
   1659      7337.869 DT     0001 Rx 8  7F 02 34 56 DE AD BE EF 
   1660      7338.099 DT     0001 Rx 8  8A 03 34 56 DE AD BE EF 
   1666      7360.873 DT     0001 Rx 8  80 03 34 56 DE AD BE EF 
   1667      7361.107 DT     0001 Rx 8  8B 04 34 56 DE AD BE EF 
   1673      7384.852 DT     0001 Rx 8  8C 03 34 56 DE AD BE EF 
   1678      7406.726 DT     0001 Rx 8  8D 04 34 56 DE AD BE EF 
   1683      7428.723 DT     0001 Rx 8  8E 04 34 56 DE AD BE EF 
   1689      7450.733 DT     0001 Rx 8  8F 05 34 56 DE AD BE EF 
   1695      7475.729 DT     0001 Rx 8  90 05 34 56 DE AD BE EF 
   1736      7678.726 DT     0001 Rx 8  83 06 34 56 DE AD BE EF 
   1753      7751.014 DT     0001 Rx 8  91 06 34 56 DE AD BE EF 
   1762      7798.818 DT     0001 Rx 8  72 07 34 56 DE AD BE EF 
   1801      7982.932 DT     0001 Rx 8  64 00 34 56 DE AD BE EF 
   1808      8018.799 DT     0001 Rx 8  87 00 34 56 DE AD BE EF 
   1811      8026.803 DT     0001 Rx 8  92 00 34 56 DE AD BE EF 
   1815      8040.801 DT     0001 Rx 8  88 01 34 56 DE AD BE EF 
   1817      8048.807 DT     0001 Rx 8  93 01 34 56 DE AD BE EF 
   1822      8064.801 DT     0001 Rx 8  89 07 34 56 DE AD BE EF 
   1824      8070.824 DT     0001 Rx 8  94 07 34 56 DE AD BE EF 
   1830      8092.928 DT     0001 Rx 8  95 07 34 56 DE AD BE EF 
   1835      8114.927 DT     0001 Rx 8  96 07 34 56 DE AD BE EF 
   1840      8136.933 DT     0001 Rx 8  97 08 34 56 DE AD BE EF 
   1845      8158.935 DT     0001 Rx 8  98 08 34 56 DE AD BE EF 
   1851      8180.921 DT     0001 Rx 8  99 09 34 56 DE AD BE EF 
   1857      8202.919 DT     0001 Rx 8  9A 09 34 56 DE AD BE EF 
   1862      8224.914 DT     0001 Rx 8  9B 09 34 56 DE AD BE EF 
   1867      8246.927 DT     0001 Rx 8  9C 09 34 56 DE AD BE EF 
   1886      8338.920 DT     0001 Rx 8  7F 02 34 56 DE AD BE EF 
   1897      8386.916 DT     0001 Rx 8  8C 02 34 56 DE AD BE EF 
   1907      8430.916 DT     0001 Rx 8  8E 03 34 56 DE AD BE EF 
   1917      8476.920 DT     0001 Rx 8  90 03 34 56 DE AD BE EF 
   1927      8520.797 DT     0001 Rx 8  9D 04 34 56 DE AD BE EF 
   1933      8542.781 DT     0001 Rx 8  9E 04 34 56 DE AD BE EF 
   1938      8564.913 DT     0001 Rx 8  9F 04 34 56 DE AD BE EF 
   1943      8586.787 DT     0001 Rx 8  A0 04 34 56 DE AD BE EF 
   1948      8608.786 DT     0001 Rx 8  A1 05 34 56 DE AD BE EF 
   1955      8631.024 DT     0001 Rx 8  A2 05 34 56 DE AD BE EF 
   1980      8753.002 DT     0001 Rx 8  91 06 34 56 DE AD BE EF 
   2011      8906.993 DT     0001 Rx 8  A3 06 34 56 DE AD BE EF 
   2036      9028.867 DT     0001 Rx 8  92 00 34 56 DE AD BE EF 
   2042      9050.856 DT     0001 Rx 8  93 00 34 56 DE AD BE EF 
   2056      9116.977 DT     0001 Rx 8  96 00 34 56 DE AD BE EF 
   2066      9160.982 DT     0001 Rx 8  98 00 34 56 DE AD BE EF 
   2071      9180.852 DT     0001 Rx 8  A4 00 34 56 DE AD BE EF 
   2077      9202.982 DT     0001 Rx 8  A5 00 34 56 DE AD BE EF 
   2082      9224.849 DT     0001 Rx 8  A6 00 34 56 DE AD BE EF 
   2087      9246.860 DT     0001 Rx 8  A7 00 34 56 DE AD BE EF 
   2088      9248.858 DT     0001 Rx 8  9C 01 34 56 DE AD BE EF 
   2093      9268.855 DT     0001 Rx 8  A8 01 34 56 DE AD BE EF 
   2099      9290.845 DT     0001 Rx 8  A9 07 34 56 DE AD BE EF 
   2105      9312.971 DT     0001 Rx 8  AA 07 34 56 DE AD BE EF 
   2110      9334.847 DT     0001 Rx 8  AB 07 34 56 DE AD BE EF 
   2115      9356.848 DT     0001 Rx 8  AC 07 34 56 DE AD BE EF 
   2120      9378.978 DT     0001 Rx 8  AD 08 34 56 DE AD BE EF 
   2123      9388.978 DT     0001 Rx 8  8C 02 34 56 DE AD BE EF 
   2127      9400.980 DT     0001 Rx 8  AE 08 34 56 DE AD BE EF 
   2133      9422.864 DT     0001 Rx 8  AF 08 34 56 DE AD BE EF 
   2138      9444.846 DT     0001 Rx 8  B0 08 34 56 DE AD BE EF 
   2143      9466.839 DT     0001 Rx 8  B1 08 34 56 DE AD BE EF 
   2146      9478.960 DT     0001 Rx 8  90 03 34 56 DE AD BE EF 
   2149      9488.849 DT     0001 Rx 8  B2 03 34 56 DE AD BE EF 
   2155      9510.963 DT     0001 Rx 8  B3 09 34 56 DE AD BE EF 
   2161      9532.850 DT     0001 Rx 8  B4 09 34 56 DE AD BE EF 
   2166      9554.840 DT     0001 Rx 8  B5 09 34 56 DE AD BE EF 
   2171      9576.845 DT     0001 Rx 8  B6 09 34 56 DE AD BE EF 
   2174      9588.971 DT     0001 Rx 8  A0 04 34 56 DE AD BE EF 
   2177      9598.970 DT     0001 Rx 8  B7 04 34 56 DE AD BE EF 
   2186      9632.834 DT     0001 Rx 8  A2 05 34 56 DE AD BE EF 
   2241      9908.736 DT     0001 Rx 8  A3 06 34 56 DE AD BE EF 
   2310     10248.959 DT     0001 Rx 8  A7 00 34 56 DE AD BE EF 
   2316     10270.967 DT     0001 Rx 8  A8 00 34 56 DE AD BE EF 
   2334     10358.965 DT     0001 Rx 8  AC 00 34 56 DE AD BE EF 
   2339     10377.948 DT     0001 Rx 8  B8 00 34 56 DE AD BE EF 
   2343     10390.950 DT     0001 Rx 8  8C 01 34 56 DE AD BE EF 
   2347     10401.058 DT     0001 Rx 8  B9 01 34 56 DE AD BE EF 
   2352     10425.950 DT     0001 Rx 8  BA 02 34 56 DE AD BE EF 
   2357     10447.944 DT     0001 Rx 8  BB 02 34 56 DE AD BE EF 
   2362     10468.959 DT     0001 Rx 8  B1 07 34 56 DE AD BE EF 
   2365     10474.955 DT     0001 Rx 8  BC 07 34 56 DE AD BE EF 
   2368     10489.954 DT     0001 Rx 8  B2 03 34 56 DE AD BE EF 
   2371     10496.946 DT     0001 Rx 8  BD 03 34 56 DE AD BE EF 
   2376     10518.958 DT     0001 Rx 8  BE 08 34 56 DE AD BE EF 
   2382     10540.955 DT     0001 Rx 8  BF 08 34 56 DE AD BE EF 
   2388     10564.957 DT     0001 Rx 8  C0 08 34 56 DE AD BE EF 
   2391     10578.948 DT     0001 Rx 8  B6 08 34 56 DE AD BE EF 
   2394     10587.945 DT     0001 Rx 8  C1 09 34 56 DE AD BE EF 
   2397     10599.942 DT     0001 Rx 8  B7 04 34 56 DE AD BE EF 
   2402     10610.948 DT     0001 Rx 8  C2 09 34 56 DE AD BE EF 
   2407     10634.943 DT     0001 Rx 8  A2 05 34 56 DE AD BE EF 
   2408     10635.175 DT     0001 Rx 8  C3 09 34 56 DE AD BE EF 
   2413     10658.943 DT     0001 Rx 8  C4 09 34 56 DE AD BE EF 
   2466     10910.855 DT     0001 Rx 8  A3 06 34 56 DE AD BE EF 
   2471     10932.813 DT     0001 Rx 8  C5 06 34 56 DE AD BE EF 
   2476     10954.802 DT     0001 Rx 8  C6 06 34 56 DE AD BE EF 
   2481     10976.800 DT     0001 Rx 8  C7 06 34 56 DE AD BE EF 
   2562     11378.913 DT     0001 Rx 8  B8 00 34 56 DE AD BE EF 
   2569     11402.913 DT     0001 Rx 8  B9 00 34 56 DE AD BE EF 
   2578     11448.904 DT     0001 Rx 8  BB 00 34 56 DE AD BE EF 
   2585     11476.910 DT     0001 Rx 8  BC 00 34 56 DE AD BE EF 
   2590     11498.913 DT     0001 Rx 8  BD 01 34 56 DE AD BE EF 
   2593     11504.915 DT     0001 Rx 8  C8 01 34 56 DE AD BE EF 
   2598     11526.903 DT     0001 Rx 8  C9 02 34 56 DE AD BE EF 
   2603     11548.900 DT     0001 Rx 8  CA 02 34 56 DE AD BE EF 
   2609     11570.899 DT     0001 Rx 8  CB 03 34 56 DE AD BE EF 
   2612     11580.895 DT     0001 Rx 8  B6 03 34 56 DE AD BE EF 
   2616     11592.897 DT     0001 Rx 8  CC 03 34 56 DE AD BE EF 
   2619     11601.915 DT     0001 Rx 8  B7 03 34 56 DE AD BE EF 
   2622     11614.905 DT     0001 Rx 8  CD 03 34 56 DE AD BE EF 
   2627     11636.901 DT     0001 Rx 8  A2 03 34 56 DE AD BE EF 
   2628     11637.133 DT     0001 Rx 8  CE 04 34 56 DE AD BE EF 
   2634     11660.903 DT     0001 Rx 8  C4 04 34 56 DE AD BE EF 
   2635     11661.137 DT     0001 Rx 8  CF 05 34 56 DE AD BE EF 
   2641     11684.901 DT     0001 Rx 8  D0 04 34 56 DE AD BE EF 
   2646     11706.898 DT     0001 Rx 8  D1 05 34 56 DE AD BE EF 
   2651     11728.889 DT     0001 Rx 8  D2 05 34 56 DE AD BE EF 
   2657     11750.883 DT     0001 Rx 8  D3 07 34 56 DE AD BE EF 
   2663     11774.875 DT     0001 Rx 8  D4 07 34 56 DE AD BE EF 
   2668     11796.875 DT     0001 Rx 8  D5 08 34 56 DE AD BE EF 
   2673     11818.750 DT     0001 Rx 8  D6 08 34 56 DE AD BE EF 
   2679     11840.878 DT     0001 Rx 8  D7 09 34 56 DE AD BE EF 
   2685     11862.754 DT     0001 Rx 8  D8 09 34 56 DE AD BE EF 
   2690     11884.754 DT     0001 Rx 8  D9 09 34 56 DE AD BE EF 
   2695     11906.760 DT     0001 Rx 8  DA 09 34 56 DE AD BE EF 
   2710     11978.757 DT     0001 Rx 8  C7 06 34 56 DE AD BE EF 
   2752     12180.864 DT     0001 Rx 8  DB 06 34 56 DE AD BE EF 
   2758     12202.862 DT     0001 Rx 8  DC 06 34 56 DE AD BE EF 
   2763     12224.735 DT     0001 Rx 8  DD 06 34 56 DE AD BE EF 
   2814     12478.852 DT     0001 Rx 8  BC 00 34 56 DE AD BE EF 
   2819     12498.735 DT     0001 Rx 8  DE 00 34 56 DE AD BE EF 
   2822     12506.729 DT     0001 Rx 8  C8 01 34 56 DE AD BE EF 
   2826     12520.759 DT     0001 Rx 8  DF 01 34 56 DE AD BE EF 
   2833     12550.765 DT     0001 Rx 8  CA 02 34 56 DE AD BE EF 
   2851     12638.718 DT     0001 Rx 8  A2 02 34 56 DE AD BE EF 
   2862     12686.715 DT     0001 Rx 8  D0 03 34 56 DE AD BE EF 
   2872     12730.749 DT     0001 Rx 8  D2 03 34 56 DE AD BE EF 
   2882     12776.616 DT     0001 Rx 8  D4 03 34 56 DE AD BE EF 
   2887     12796.732 DT     0001 Rx 8  E0 03 34 56 DE AD BE EF 
   2892     12819.741 DT     0001 Rx 8  D6 04 34 56 DE AD BE EF 
   2893     12819.977 DT     0001 Rx 8  E1 05 34 56 DE AD BE EF 
   2900     12842.763 DT     0001 Rx 8  E2 04 34 56 DE AD BE EF 
   2905     12865.733 DT     0001 Rx 8  E3 05 34 56 DE AD BE EF 
   2910     12888.739 DT     0001 Rx 8  E4 07 34 56 DE AD BE EF 
   2915     12907.615 DT     0001 Rx 8  DA 07 34 56 DE AD BE EF 
   2918     12912.739 DT     0001 Rx 8  E5 08 34 56 DE AD BE EF 
   2923     12934.737 DT     0001 Rx 8  E6 08 34 56 DE AD BE EF 
   2928     12956.602 DT     0001 Rx 8  E7 09 34 56 DE AD BE EF 
   2933     12978.614 DT     0001 Rx 8  E8 09 34 56 DE AD BE EF 
   2984     13226.717 DT     0001 Rx 8  DD 06 34 56 DE AD BE EF 
   2991     13252.672 DT     0001 Rx 8  E9 06 34 56 DE AD BE EF 
   2996     13276.717 DT     0001 Rx 8  EA 06 34 56 DE AD BE EF 
   3001     13298.600 DT     0001 Rx 8  EB 06 34 56 DE AD BE EF 
   3042     13500.585 DT     0001 Rx 8  DE 00 34 56 DE AD BE EF 
   3049     13522.585 DT     0001 Rx 8  DF 00 34 56 DE AD BE EF 
   3060     13572.722 DT     0001 Rx 8  EC 00 34 56 DE AD BE EF 
   3065     13595.581 DT     0001 Rx 8  ED 00 34 56 DE AD BE EF 
   3070     13618.585 DT     0001 Rx 8  EE 01 34 56 DE AD BE EF 
   3075     13639.586 DT     0001 Rx 8  A2 01 34 56 DE AD BE EF 
   3078     13642.668 DT     0001 Rx 8  EF 02 34 56 DE AD BE EF 
   3109     13797.600 DT     0001 Rx 8  E0 03 34 56 DE AD BE EF 
   3120     13843.592 DT     0001 Rx 8  E2 04 34 56 DE AD BE EF 
   3125     13867.603 DT     0001 Rx 8  E3 04 34 56 DE AD BE EF 
   3134     13909.590 DT     0001 Rx 8  DA 05 34 56 DE AD BE EF 
   3137     13917.471 DT     0001 Rx 8  F0 05 34 56 DE AD BE EF 
   3142     13935.595 DT     0001 Rx 8  E6 07 34 56 DE AD BE EF 
   3143     13939.469 DT     0001 Rx 8  F1 07 34 56 DE AD BE EF 
   3150     13963.595 DT     0001 Rx 8  F2 08 34 56 DE AD BE EF 
   3153     13979.465 DT     0001 Rx 8  E8 08 34 56 DE AD BE EF 
   3156     13985.597 DT     0001 Rx 8  F3 09 34 56 DE AD BE EF 
   3161     14007.586 DT     0001 Rx 8  F4 09 34 56 DE AD BE EF 
   3221     14300.568 DT     0001 Rx 8  EB 06 34 56 DE AD BE EF 
   3269     14534.693 DT     0001 Rx 8  F5 06 34 56 DE AD BE EF 
   3282     14596.694 DT     0001 Rx 8  ED 00 34 56 DE AD BE EF 
   3292     14640.560 DT     0001 Rx 8  A2 00 34 56 DE AD BE EF 
   3294     14644.551 DT     0001 Rx 8  EF 00 34 56 DE AD BE EF 
   3325     14798.652 DT     0001 Rx 8  E0 00 34 56 DE AD BE EF 
   3329     14810.650 DT     0001 Rx 8  F6 01 34 56 DE AD BE EF 
   3335     14832.768 DT     0001 Rx 8  F7 01 34 56 DE AD BE EF 
   3340     14854.651 DT     0001 Rx 8  F8 01 34 56 DE AD BE EF 
   3343     14868.660 DT     0001 Rx 8  E3 01 34 56 DE AD BE EF 
   3346     14876.652 DT     0001 Rx 8  F9 02 34 56 DE AD BE EF 
   3351     14898.639 DT     0001 Rx 8  FA 02 34 56 DE AD BE EF 
   3356     14918.643 DT     0001 Rx 8  F0 03 34 56 DE AD BE EF 
   3358     14920.649 DT     0001 Rx 8  FB 03 34 56 DE AD BE EF 
   3363     14940.647 DT     0001 Rx 8  F1 03 34 56 DE AD BE EF 
   3365     14944.653 DT     0001 Rx 8  FC 03 34 56 DE AD BE EF 
   3370     14966.778 DT     0001 Rx 8  FD 04 34 56 DE AD BE EF 
   3374     14980.652 DT     0001 Rx 8  E8 04 34 56 DE AD BE EF 
   3376     14988.639 DT     0001 Rx 8  FE 04 34 56 DE AD BE EF 
   3381     15008.647 DT     0001 Rx 8  F4 04 34 56 DE AD BE EF 
   3383     15010.641 DT     0001 Rx 8  FF 05 34 56 DE AD BE EF 
   3389     15032.651 DT     0001 Rx 8  00 05 34 56 DE AD BE EF 
   3394     15054.645 DT     0001 Rx 8  01 05 34 56 DE AD BE EF 
   3399     15076.767 DT     0001 Rx 8  02 05 34 56 DE AD BE EF 
   3404     15098.644 DT     0001 Rx 8  03 07 34 56 DE AD BE EF 
   3410     15120.640 DT     0001 Rx 8  04 07 34 56 DE AD BE EF 
   3416     15142.768 DT     0001 Rx 8  05 07 34 56 DE AD BE EF 
   3421     15164.768 DT     0001 Rx 8  06 07 34 56 DE AD BE EF 
   3426     15186.764 DT     0001 Rx 8  07 08 34 56 DE AD BE EF 
   3431     15208.643 DT     0001 Rx 8  08 08 34 56 DE AD BE EF 
   3437     15230.635 DT     0001 Rx 8  09 09 34 56 DE AD BE EF 
   3443     15252.761 DT     0001 Rx 8  0A 09 34 56 DE AD BE EF 
   3448     15274.763 DT     0001 Rx 8  0B 09 34 56 DE AD BE EF 
   3453     15296.634 DT     0001 Rx 8  0C 09 34 56 DE AD BE EF 
   3502     15536.623 DT     0001 Rx 8  F5 06 34 56 DE AD BE EF 
   3510     15570.626 DT     0001 Rx 8  0D 06 34 56 DE AD BE EF 
