;$FILEVERSION=2.0
;$STARTTIME=45051.5697609259
;$COLUMNS=N,O,T,I,d,l,D
;
;   Start time: 05/05/2023 13:40:27.344.0
;   Generated by PCAN-View v4.3.4.615
;-------------------------------------------------------------------------------
;   Connection                 Bit rate
;   PCANLight_USB_16@pcan_usb  500 kBit/s
;-------------------------------------------------------------------------------
;   Message   Time    Type ID     Rx/Tx
;   Number    Offset  |    [hex]  |  Data Length
;   |         [ms]    |    |      |  |  Data [hex] ...
;   |         |       |    |      |  |  |
;---+-- ------+------ +- --+----- +- +- +- +- -- -- -- -- -- -- --
      1         9.947 DT     0100 Rx 8  01 23 45 67 89 AB CD EF 
      2        11.607 DT     0101 Tx 8  FE DC BA 98 76 54 32 10 
      3        19.967 DT     0100 Rx 8  01 23 45 67 89 AB CD EF 
      4        21.588 DT     0101 Tx 8  FE DC BA 98 76 54 32 10 
      5        29.985 DT     0100 Rx 8  01 23 45 67 89 AB CD EF 
      6        31.577 DT     0101 Tx 8  FE DC BA 98 76 54 32 10 
      7        39.995 DT     0100 Rx 8  01 23 45 67 89 AB CD EF 
      8        41.589 DT     0101 Tx 8  FE DC BA 98 76 54 32 10 
      9        49.966 DT     0100 Rx 8  01 23 45 67 89 AB CD EF 
     10        51.637 DT     0101 Tx 8  FE DC BA 98 76 54 32 10 
     11        59.982 DT     0100 Rx 8  01 23 45 67 89 AB CD EF 
     12        61.582 DT     0101 Tx 8  FE DC BA 98 76 54 32 10 
     13        69.924 DT     0100 Rx 8  01 23 45 67 89 AB CD EF 
     14        71.594 DT     0101 Tx 8  FE DC BA 98 76 54 32 10 
     15        80.004 DT     0100 Rx 8  01 23 45 67 89 AB CD EF 
     16        81.586 DT     0101 Tx 8  FE DC BA 98 76 54 32 10 
     17        89.956 DT     0100 Rx 8  01 23 45 67 89 AB CD EF 
     18        91.605 DT     0101 Tx 8  FE DC BA 98 76 54 32 10 
     19       100.000 DT     0100 Rx 8  01 23 45 67 89 AB CD EF 
     20       101.592 DT     0101 Tx 8  FE DC BA 98 76 54 32 10 
     21       109.984 DT     0100 Rx 8  01 23 45 67 89 AB CD EF 
     22       111.634 DT     0101 Tx 8  FE DC BA 98 76 54 32 10 
     23       119.971 DT     0100 Rx 8  01 23 45 67 89 AB CD EF 
     24       121.584 DT     0101 Tx 8  FE DC BA 98 76 54 32 10 
     25       129.967 DT     0100 Rx 8  01 23 45 67 89 AB CD EF 
     26       131.589 DT     0101 Tx 8  FE DC BA 98 76 54 32 10 
     27       139.981 DT     0100 Rx 8  01 23 45 67 89 AB CD EF 
     28       141.611 DT     0101 Tx 8  FE DC BA 98 76 54 32 10 
     29       149.955 DT     0100 Rx 8  01 23 45 67 89 AB CD EF 
     30       151.595 DT     0101 Tx 8  FE DC BA 98 76 54 32 10 
     31       159.969 DT     0100 Rx 8  01 23 45 67 89 AB CD EF 
     32       161.607 DT     0101 Tx 8  FE DC BA 98 76 54 32 10 
     33       169.971 DT     0100 Rx 8  01 23 45 67 89 AB CD EF 
     34       171.595 DT     0101 Tx 8  FE DC BA 98 76 54 32 10 
     35       180.041 DT     0100 Rx 8  01 23 45 67 89 AB CD EF 
     36       181.600 DT     0101 Tx 8  FE DC BA 98 76 54 32 10 
     37       189.967 DT     0100 Rx 8  01 23 45 67 89 AB CD EF 
     38       191.603 DT     0101 Tx 8  FE DC BA 98 76 54 32 10 
     39       199.961 DT     0100 Rx 8  01 23 45 67 89 AB CD EF 
     40       201.580 DT     0101 Tx 8  FE DC BA 98 76 54 32 10 
     41       209.952 DT     0100 Rx 8  01 23 45 67 89 AB CD EF 
     42       211.601 DT     0101 Tx 8  FE DC BA 98 76 54 32 10 
     43       219.928 DT     0100 Rx 8  01 23 45 67 89 AB CD EF 
     44       221.587 DT     0101 Tx 8  FE DC BA 98 76 54 32 10 
     45       230.006 DT     0100 Rx 8  01 23 45 67 89 AB CD EF 
     46       231.609 DT     0101 Tx 8  FE DC BA 98 76 54 32 10 
     47       239.960 DT     0100 Rx 8  01 23 45 67 89 AB CD EF 
     48       241.591 DT     0101 Tx 8  FE DC BA 98 76 54 32 10 
     49       249.970 DT     0100 Rx 8  01 23 45 67 89 AB CD EF 
     50       251.578 DT     0101 Tx 8  FE DC BA 98 76 54 32 10 
     51       259.944 DT     0100 Rx 8  01 23 45 67 89 AB CD EF 
     52       261.576 DT     0101 Tx 8  FE DC BA 98 76 54 32 10 
     53       269.962 DT     0100 Rx 8  01 23 45 67 89 AB CD EF 
     54       271.579 DT     0101 Tx 8  FE DC BA 98 76 54 32 10 
     55       279.982 DT     0100 Rx 8  01 23 45 67 89 AB CD EF 
     56       281.579 DT     0101 Tx 8  FE DC BA 98 76 54 32 10 
     57       289.945 DT     0100 Rx 8  01 23 45 67 89 AB CD EF 
     58       291.585 DT     0101 Tx 8  FE DC BA 98 76 54 32 10 
     59       300.019 DT     0100 Rx 8  01 23 45 67 89 AB CD EF 
     60       301.592 DT     0101 Tx 8  FE DC BA 98 76 54 32 10 
     61       309.957 DT     0100 Rx 8  01 23 45 67 89 AB CD EF 
     62       311.611 DT     0101 Tx 8  FE DC BA 98 76 54 32 10 
     63       320.007 DT     0100 Rx 8  01 23 45 67 89 AB CD EF 
     64       321.599 DT     0101 Tx 8  FE DC BA 98 76 54 32 10 
     65       329.975 DT     0100 Rx 8  01 23 45 67 89 AB CD EF 
     66       331.591 DT     0101 Tx 8  FE DC BA 98 76 54 32 10 
     67       339.959 DT     0100 Rx 8  01 23 45 67 89 AB CD EF 
     68       341.582 DT     0101 Tx 8  FE DC BA 98 76 54 32 10 
     69       349.937 DT     0100 Rx 8  01 23 45 67 89 AB CD EF 
     70       351.574 DT     0101 Tx 8  FE DC BA 98 76 54 32 10 
     71       359.975 DT     0100 Rx 8  01 23 45 67 89 AB CD EF 
     72       361.578 DT     0101 Tx 8  FE DC BA 98 76 54 32 10 
     73       369.944 DT     0100 Rx 8  01 23 45 67 89 AB CD EF 
     74       371.580 DT     0101 Tx 8  FE DC BA 98 76 54 32 10 
     75       379.968 DT     0100 Rx 8  01 23 45 67 89 AB CD EF 
     76       381.590 DT     0101 Tx 8  FE DC BA 98 76 54 32 10 
     77       389.970 DT     0100 Rx 8  01 23 45 67 89 AB CD EF 
     78       391.608 DT     0101 Tx 8  FE DC BA 98 76 54 32 10 
     79       399.956 DT     0100 Rx 8  01 23 45 67 89 AB CD EF 
     80       401.575 DT     0101 Tx 8  FE DC BA 98 76 54 32 10 
     81       409.950 DT     0100 Rx 8  01 23 45 67 89 AB CD EF 
     82       411.602 DT     0101 Tx 8  FE DC BA 98 76 54 32 10 
     83       419.952 DT     0100 Rx 8  01 23 45 67 89 AB CD EF 
     84       421.577 DT     0101 Tx 8  FE DC BA 98 76 54 32 10 
     85       429.968 DT     0100 Rx 8  01 23 45 67 89 AB CD EF 
     86       431.583 DT     0101 Tx 8  FE DC BA 98 76 54 32 10 
     87       439.938 DT     0100 Rx 8  01 23 45 67 89 AB CD EF 
     88       441.578 DT     0101 Tx 8  FE DC BA 98 76 54 32 10 
     89       449.952 DT     0100 Rx 8  01 23 45 67 89 AB CD EF 
     90       451.578 DT     0101 Tx 8  FE DC BA 98 76 54 32 10 
     91       459.958 DT     0100 Rx 8  01 23 45 67 89 AB CD EF 
     92       461.592 DT     0101 Tx 8  FE DC BA 98 76 54 32 10 
     93       469.959 DT     0100 Rx 8  01 23 45 67 89 AB CD EF 
     94       471.578 DT     0101 Tx 8  FE DC BA 98 76 54 32 10 
     95       479.997 DT     0100 Rx 8  01 23 45 67 89 AB CD EF 
     96       481.591 DT     0101 Tx 8  FE DC BA 98 76 54 32 10 
     97       484.855 DT     0001 Rx 8  00 00 34 56 DE AD BE EF 
     98       490.043 DT     0100 Rx 8  01 23 45 67 89 AB CD EF 
     99       491.602 DT     0101 Tx 8  FE DC BA 98 76 54 32 10 
    100       499.957 DT     0100 Rx 8  01 23 45 67 89 AB CD EF 
    101       501.586 DT     0101 Tx 8  FE DC BA 98 76 54 32 10 
    102       506.753 DT     0001 Rx 8  01 01 34 56 DE AD BE EF 
    103       509.959 DT     0100 Rx 8  01 23 45 67 89 AB CD EF 
    104       511.584 DT     0101 Tx 8  FE DC BA 98 76 54 32 10 
    105       519.945 DT     0100 Rx 8  01 23 45 67 89 AB CD EF 
    106       521.572 DT     0101 Tx 8  FE DC BA 98 76 54 32 10 
    107       528.755 DT     0001 Rx 8  02 01 34 56 DE AD BE EF 
    108       530.001 DT     0100 Rx 8  01 23 45 67 89 AB CD EF 
    109       531.611 DT     0101 Tx 8  FE DC BA 98 76 54 32 10 
    110       539.963 DT     0100 Rx 8  01 23 45 67 89 AB CD EF 
    111       541.589 DT     0101 Tx 8  FE DC BA 98 76 54 32 10 
    112       549.963 DT     0100 Rx 8  01 23 45 67 89 AB CD EF 
    113       550.743 DT     0001 Rx 8  03 02 34 56 DE AD BE EF 
    114       551.580 DT     0101 Tx 8  FE DC BA 98 76 54 32 10 
    115       559.955 DT     0100 Rx 8  01 23 45 67 89 AB CD EF 
    116       561.580 DT     0101 Tx 8  FE DC BA 98 76 54 32 10 
    117       569.973 DT     0100 Rx 8  01 23 45 67 89 AB CD EF 
    118       571.606 DT     0101 Tx 8  FE DC BA 98 76 54 32 10 
    119       572.867 DT     0001 Rx 8  04 02 34 56 DE AD BE EF 
    120       579.971 DT     0100 Rx 8  01 23 45 67 89 AB CD EF 
    121       581.591 DT     0101 Tx 8  FE DC BA 98 76 54 32 10 
    122       589.951 DT     0100 Rx 8  01 23 45 67 89 AB CD EF 
    123       591.582 DT     0101 Tx 8  FE DC BA 98 76 54 32 10 
    124       594.747 DT     0001 Rx 8  05 02 34 56 DE AD BE EF 
    125       600.015 DT     0100 Rx 8  01 23 45 67 89 AB CD EF 
    126       601.655 DT     0101 Tx 8  FE DC BA 98 76 54 32 10 
    127       610.027 DT     0100 Rx 8  01 23 45 67 89 AB CD EF 
    128       611.643 DT     0101 Tx 8  FE DC BA 98 76 54 32 10 
    129       616.749 DT     0001 Rx 8  06 02 34 56 DE AD BE EF 
    130       619.975 DT     0100 Rx 8  01 23 45 67 89 AB CD EF 
    131       621.648 DT     0101 Tx 8  FE DC BA 98 76 54 32 10 
    132       630.041 DT     0100 Rx 8  01 23 45 67 89 AB CD EF 
    133       631.655 DT     0101 Tx 8  FE DC BA 98 76 54 32 10 
    134       638.743 DT     0001 Rx 8  07 03 34 56 DE AD BE EF 
    135       640.030 DT     0100 Rx 8  01 23 45 67 89 AB CD EF 
    136       641.673 DT     0101 Tx 8  FE DC BA 98 76 54 32 10 
    137       650.012 DT     0100 Rx 8  01 23 45 67 89 AB CD EF 
    138       651.671 DT     0101 Tx 8  FE DC BA 98 76 54 32 10 
    139       659.986 DT     0100 Rx 8  01 23 45 67 89 AB CD EF 
    140       660.878 DT     0001 Rx 8  08 03 34 56 DE AD BE EF 
    141       661.683 DT     0101 Tx 8  FE DC BA 98 76 54 32 10 
    142       670.025 DT     0100 Rx 8  01 23 45 67 89 AB CD EF 
    143       671.652 DT     0101 Tx 8  FE DC BA 98 76 54 32 10 
    144       680.021 DT     0100 Rx 8  01 23 45 67 89 AB CD EF 
    145       681.657 DT     0101 Tx 8  FE DC BA 98 76 54 32 10 
    146       682.872 DT     0001 Rx 8  09 03 34 56 DE AD BE EF 
    147       690.049 DT     0100 Rx 8  01 23 45 67 89 AB CD EF 
    148       691.656 DT     0101 Tx 8  FE DC BA 98 76 54 32 10 
    149       700.027 DT     0100 Rx 8  01 23 45 67 89 AB CD EF 
    150       701.653 DT     0101 Tx 8  FE DC BA 98 76 54 32 10 
    151       704.870 DT     0001 Rx 8  0A 03 34 56 DE AD BE EF 
    152       710.157 DT     0100 Rx 8  01 23 45 67 89 AB CD EF 
    153       711.664 DT     0101 Tx 8  FE DC BA 98 76 54 32 10 
    154       720.117 DT     0100 Rx 8  01 23 45 67 89 AB CD EF 
    155       721.652 DT     0101 Tx 8  FE DC BA 98 76 54 32 10 
    156       726.965 DT     0001 Rx 8  0B 04 34 56 DE AD BE EF 
    157       730.119 DT     0100 Rx 8  01 23 45 67 89 AB CD EF 
    158       731.680 DT     0101 Tx 8  FE DC BA 98 76 54 32 10 
    159       740.137 DT     0100 Rx 8  01 23 45 67 89 AB CD EF 
    160       741.665 DT     0101 Tx 8  FE DC BA 98 76 54 32 10 
    161       748.972 DT     0001 Rx 8  0C 04 34 56 DE AD BE EF 
    162       750.118 DT     0100 Rx 8  01 23 45 67 89 AB CD EF 
    163       751.663 DT     0101 Tx 8  FE DC BA 98 76 54 32 10 
    164       760.112 DT     0100 Rx 8  01 23 45 67 89 AB CD EF 
    165       761.656 DT     0101 Tx 8  FE DC BA 98 76 54 32 10 
    166       770.156 DT     0100 Rx 8  01 23 45 67 89 AB CD EF 
    167       770.964 DT     0001 Rx 8  0D 05 34 56 DE AD BE EF 
    168       771.654 DT     0101 Tx 8  FE DC BA 98 76 54 32 10 
    169       780.120 DT     0100 Rx 8  01 23 45 67 89 AB CD EF 
    170       781.659 DT     0101 Tx 8  FE DC BA 98 76 54 32 10 
    171       790.152 DT     0100 Rx 8  01 23 45 67 89 AB CD EF 
    172       791.660 DT     0101 Tx 8  FE DC BA 98 76 54 32 10 
    173       792.972 DT     0001 Rx 8  0E 05 34 56 DE AD BE EF 
    174       800.150 DT     0100 Rx 8  01 23 45 67 89 AB CD EF 
    175       801.658 DT     0101 Tx 8  FE DC BA 98 76 54 32 10 
    176       810.121 DT     0100 Rx 8  01 23 45 67 89 AB CD EF 
    177       811.697 DT     0101 Tx 8  FE DC BA 98 76 54 32 10 
    178       814.969 DT     0001 Rx 8  0F 05 34 56 DE AD BE EF 
    179       820.113 DT     0100 Rx 8  01 23 45 67 89 AB CD EF 
    180       821.650 DT     0101 Tx 8  FE DC BA 98 76 54 32 10 
    181       830.133 DT     0100 Rx 8  01 23 45 67 89 AB CD EF 
    182       831.651 DT     0101 Tx 8  FE DC BA 98 76 54 32 10 
    183       836.961 DT     0001 Rx 8  10 05 34 56 DE AD BE EF 
    184       840.163 DT     0100 Rx 8  01 23 45 67 89 AB CD EF 
    185       841.656 DT     0101 Tx 8  FE DC BA 98 76 54 32 10 
    186       850.121 DT     0100 Rx 8  01 23 45 67 89 AB CD EF 
    187       851.653 DT     0101 Tx 8  FE DC BA 98 76 54 32 10 
    188       858.954 DT     0001 Rx 8  11 06 34 56 DE AD BE EF 
    189       860.152 DT     0100 Rx 8  01 23 45 67 89 AB CD EF 
    190       861.689 DT     0101 Tx 8  FE DC BA 98 76 54 32 10 
    191       870.154 DT     0100 Rx 8  01 23 45 67 89 AB CD EF 
    192       871.669 DT     0101 Tx 8  FE DC BA 98 76 54 32 10 
    193       880.118 DT     0100 Rx 8  01 23 45 67 89 AB CD EF 
    194       880.960 DT     0001 Rx 8  12 06 34 56 DE AD BE EF 
    195       881.678 DT     0101 Tx 8  FE DC BA 98 76 54 32 10 
    196       890.108 DT     0100 Rx 8  01 23 45 67 89 AB CD EF 
    197       891.664 DT     0101 Tx 8  FE DC BA 98 76 54 32 10 
    198       900.120 DT     0100 Rx 8  01 23 45 67 89 AB CD EF 
    199       901.646 DT     0101 Tx 8  FE DC BA 98 76 54 32 10 
    200       902.952 DT     0001 Rx 8  13 06 34 56 DE AD BE EF 
    201       910.098 DT     0100 Rx 8  01 23 45 67 89 AB CD EF 
    202       911.644 DT     0101 Tx 8  FE DC BA 98 76 54 32 10 
    203       920.126 DT     0100 Rx 8  01 23 45 67 89 AB CD EF 
    204       921.659 DT     0101 Tx 8  FE DC BA 98 76 54 32 10 
    205       924.952 DT     0001 Rx 8  14 06 34 56 DE AD BE EF 
    206       930.122 DT     0100 Rx 8  01 23 45 67 89 AB CD EF 
    207       931.673 DT     0101 Tx 8  FE DC BA 98 76 54 32 10 
    208       940.142 DT     0100 Rx 8  01 23 45 67 89 AB CD EF 
    209       941.655 DT     0101 Tx 8  FE DC BA 98 76 54 32 10 
    210       946.966 DT     0001 Rx 8  15 07 34 56 DE AD BE EF 
    211       950.154 DT     0100 Rx 8  01 23 45 67 89 AB CD EF 
    212       951.656 DT     0101 Tx 8  FE DC BA 98 76 54 32 10 
    213       960.116 DT     0100 Rx 8  01 23 45 67 89 AB CD EF 
    214       961.656 DT     0101 Tx 8  FE DC BA 98 76 54 32 10 
    215       968.959 DT     0001 Rx 8  16 07 34 56 DE AD BE EF 
    216       970.108 DT     0100 Rx 8  01 23 45 67 89 AB CD EF 
    217       971.663 DT     0101 Tx 8  FE DC BA 98 76 54 32 10 
    218       980.144 DT     0100 Rx 8  01 23 45 67 89 AB CD EF 
    219       981.690 DT     0101 Tx 8  FE DC BA 98 76 54 32 10 
    220       990.216 DT     0100 Rx 8  01 23 45 67 89 AB CD EF 
    221       990.952 DT     0001 Rx 8  17 08 34 56 DE AD BE EF 
    222       991.657 DT     0101 Tx 8  FE DC BA 98 76 54 32 10 
    223      1000.128 DT     0100 Rx 8  01 23 45 67 89 AB CD EF 
    224      1001.678 DT     0101 Tx 8  FE DC BA 98 76 54 32 10 
    225      1010.142 DT     0100 Rx 8  01 23 45 67 89 AB CD EF 
    226      1011.667 DT     0101 Tx 8  FE DC BA 98 76 54 32 10 
    227      1012.960 DT     0001 Rx 8  18 08 34 56 DE AD BE EF 
    228      1020.128 DT     0100 Rx 8  01 23 45 67 89 AB CD EF 
    229      1021.651 DT     0101 Tx 8  FE DC BA 98 76 54 32 10 
    230      1030.152 DT     0100 Rx 8  01 23 45 67 89 AB CD EF 
    231      1031.649 DT     0101 Tx 8  FE DC BA 98 76 54 32 10 
    232      1034.954 DT     0001 Rx 8  19 08 34 56 DE AD BE EF 
    233      1040.180 DT     0100 Rx 8  01 23 45 67 89 AB CD EF 
    234      1041.666 DT     0101 Tx 8  FE DC BA 98 76 54 32 10 
    235      1050.120 DT     0100 Rx 8  01 23 45 67 89 AB CD EF 
    236      1051.689 DT     0101 Tx 8  FE DC BA 98 76 54 32 10 
    237      1056.948 DT     0001 Rx 8  1A 08 34 56 DE AD BE EF 
    238      1060.122 DT     0100 Rx 8  01 23 45 67 89 AB CD EF 
    239      1061.648 DT     0101 Tx 8  FE DC BA 98 76 54 32 10 
    240      1070.104 DT     0100 Rx 8  01 23 45 67 89 AB CD EF 
    241      1071.657 DT     0101 Tx 8  FE DC BA 98 76 54 32 10 
    242      1078.958 DT     0001 Rx 8  1B 09 34 56 DE AD BE EF 
    243      1080.128 DT     0100 Rx 8  01 23 45 67 89 AB CD EF 
    244      1081.663 DT     0101 Tx 8  FE DC BA 98 76 54 32 10 
    245      1090.110 DT     0100 Rx 8  01 23 45 67 89 AB CD EF 
    246      1091.655 DT     0101 Tx 8  FE DC BA 98 76 54 32 10 
    247      1100.120 DT     0100 Rx 8  01 23 45 67 89 AB CD EF 
    248      1100.958 DT     0001 Rx 8  1C 09 34 56 DE AD BE EF 
    249      1101.648 DT     0101 Tx 8  FE DC BA 98 76 54 32 10 
    250      1110.120 DT     0100 Rx 8  01 23 45 67 89 AB CD EF 
    251      1111.669 DT     0101 Tx 8  FE DC BA 98 76 54 32 10 
    252      1120.116 DT     0100 Rx 8  01 23 45 67 89 AB CD EF 
    253      1121.663 DT     0101 Tx 8  FE DC BA 98 76 54 32 10 
    254      1122.940 DT     0001 Rx 8  1D 09 34 56 DE AD BE EF 
    255      1130.148 DT     0100 Rx 8  01 23 45 67 89 AB CD EF 
    256      1131.648 DT     0101 Tx 8  FE DC BA 98 76 54 32 10 
    257      1140.122 DT     0100 Rx 8  01 23 45 67 89 AB CD EF 
    258      1141.692 DT     0101 Tx 8  FE DC BA 98 76 54 32 10 
    259      1144.959 DT     0001 Rx 8  1E 09 34 56 DE AD BE EF 
    260      1150.147 DT     0100 Rx 8  01 23 45 67 89 AB CD EF 
    261      1151.646 DT     0101 Tx 8  FE DC BA 98 76 54 32 10 
    262      1160.129 DT     0100 Rx 8  01 23 45 67 89 AB CD EF 
    263      1161.646 DT     0101 Tx 8  FE DC BA 98 76 54 32 10 
    264      1170.139 DT     0100 Rx 8  01 23 45 67 89 AB CD EF 
    265      1171.643 DT     0101 Tx 8  FE DC BA 98 76 54 32 10 
    266      1180.145 DT     0100 Rx 8  01 23 45 67 89 AB CD EF 
    267      1181.674 DT     0101 Tx 8  FE DC BA 98 76 54 32 10 
    268      1190.119 DT     0100 Rx 8  01 23 45 67 89 AB CD EF 
    269      1191.655 DT     0101 Tx 8  FE DC BA 98 76 54 32 10 
    270      1200.113 DT     0100 Rx 8  01 23 45 67 89 AB CD EF 
    271      1201.645 DT     0101 Tx 8  FE DC BA 98 76 54 32 10 
    272      1210.153 DT     0100 Rx 8  01 23 45 67 89 AB CD EF 
    273      1211.643 DT     0101 Tx 8  FE DC BA 98 76 54 32 10 
    274      1220.146 DT     0100 Rx 8  01 23 45 67 89 AB CD EF 
    275      1221.644 DT     0101 Tx 8  FE DC BA 98 76 54 32 10 
    276      1230.114 DT     0100 Rx 8  01 23 45 67 89 AB CD EF 
    277      1231.659 DT     0101 Tx 8  FE DC BA 98 76 54 32 10 
    278      1240.114 DT     0100 Rx 8  01 23 45 67 89 AB CD EF 
    279      1241.655 DT     0101 Tx 8  FE DC BA 98 76 54 32 10 
    280      1250.130 DT     0100 Rx 8  01 23 45 67 89 AB CD EF 
    281      1251.645 DT     0101 Tx 8  FE DC BA 98 76 54 32 10 
    282      1260.174 DT     0100 Rx 8  01 23 45 67 89 AB CD EF 
    283      1261.683 DT     0101 Tx 8  FE DC BA 98 76 54 32 10 
    284      1270.132 DT     0100 Rx 8  01 23 45 67 89 AB CD EF 
    285      1271.652 DT     0101 Tx 8  FE DC BA 98 76 54 32 10 
    286      1280.132 DT     0100 Rx 8  01 23 45 67 89 AB CD EF 
    287      1281.647 DT     0101 Tx 8  FE DC BA 98 76 54 32 10 
    288      1290.130 DT     0100 Rx 8  01 23 45 67 89 AB CD EF 
    289      1291.642 DT     0101 Tx 8  FE DC BA 98 76 54 32 10 
    290      1300.132 DT     0100 Rx 8  01 23 45 67 89 AB CD EF 
    291      1301.644 DT     0101 Tx 8  FE DC BA 98 76 54 32 10 
    292      1310.156 DT     0100 Rx 8  01 23 45 67 89 AB CD EF 
    293      1311.644 DT     0101 Tx 8  FE DC BA 98 76 54 32 10 
    294      1320.155 DT     0100 Rx 8  01 23 45 67 89 AB CD EF 
    295      1321.669 DT     0101 Tx 8  FE DC BA 98 76 54 32 10 
    296      1330.133 DT     0100 Rx 8  01 23 45 67 89 AB CD EF 
    297      1331.686 DT     0101 Tx 8  FE DC BA 98 76 54 32 10 
    298      1340.145 DT     0100 Rx 8  01 23 45 67 89 AB CD EF 
    299      1341.643 DT     0101 Tx 8  FE DC BA 98 76 54 32 10 
    300      1350.203 DT     0100 Rx 8  01 23 45 67 89 AB CD EF 
    301      1351.650 DT     0101 Tx 8  FE DC BA 98 76 54 32 10 
    302      1360.300 DT     0100 Rx 8  01 23 45 67 89 AB CD EF 
    303      1361.649 DT     0101 Tx 8  FE DC BA 98 76 54 32 10 
    304      1370.120 DT     0100 Rx 8  01 23 45 67 89 AB CD EF 
    305      1371.644 DT     0101 Tx 8  FE DC BA 98 76 54 32 10 
    306      1380.242 DT     0100 Rx 8  01 23 45 67 89 AB CD EF 
    307      1381.739 DT     0101 Tx 8  FE DC BA 98 76 54 32 10 
    308      1390.226 DT     0100 Rx 8  01 23 45 67 89 AB CD EF 
    309      1391.864 DT     0101 Tx 8  FE DC BA 98 76 54 32 10 
    310      1400.190 DT     0100 Rx 8  01 23 45 67 89 AB CD EF 
    311      1401.873 DT     0101 Tx 8  FE DC BA 98 76 54 32 10 
    312      1410.290 DT     0100 Rx 8  01 23 45 67 89 AB CD EF 
    313      1411.714 DT     0101 Tx 8  FE DC BA 98 76 54 32 10 
    314      1420.180 DT     0100 Rx 8  01 23 45 67 89 AB CD EF 
    315      1421.710 DT     0101 Tx 8  FE DC BA 98 76 54 32 10 
    316      1430.244 DT     0100 Rx 8  01 23 45 67 89 AB CD EF 
    317      1431.697 DT     0101 Tx 8  FE DC BA 98 76 54 32 10 
    318      1440.190 DT     0100 Rx 8  01 23 45 67 89 AB CD EF 
    319      1441.878 DT     0101 Tx 8  FE DC BA 98 76 54 32 10 
    320      1450.158 DT     0100 Rx 8  01 23 45 67 89 AB CD EF 
    321      1451.763 DT     0101 Tx 8  FE DC BA 98 76 54 32 10 
    322      1460.136 DT     0100 Rx 8  01 23 45 67 89 AB CD EF 
    323      1461.674 DT     0101 Tx 8  FE DC BA 98 76 54 32 10 
    324      1470.302 DT     0100 Rx 8  01 23 45 67 89 AB CD EF 
    325      1471.851 DT     0101 Tx 8  FE DC BA 98 76 54 32 10 
    326      1480.151 DT     0100 Rx 8  01 23 45 67 89 AB CD EF 
    327      1481.650 DT     0101 Tx 8  FE DC BA 98 76 54 32 10 
    328      1486.957 DT     0001 Rx 8  00 00 34 56 DE AD BE EF 
    329      1490.153 DT     0100 Rx 8  01 23 45 67 89 AB CD EF 
    330      1491.654 DT     0101 Tx 8  FE DC BA 98 76 54 32 10 
    331      1500.295 DT     0100 Rx 8  01 23 45 67 89 AB CD EF 
    332      1501.791 DT     0101 Tx 8  FE DC BA 98 76 54 32 10 
    333      1510.139 DT     0100 Rx 8  01 23 45 67 89 AB CD EF 
    334      1511.807 DT     0101 Tx 8  FE DC BA 98 76 54 32 10 
    335      1520.467 DT     0100 Rx 8  01 23 45 67 89 AB CD EF 
    336      1521.651 DT     0101 Tx 8  FE DC BA 98 76 54 32 10 
    337      1530.139 DT     0100 Rx 8  01 23 45 67 89 AB CD EF 
    338      1530.823 DT     0001 Rx 8  02 00 34 56 DE AD BE EF 
    339      1531.702 DT     0101 Tx 8  FE DC BA 98 76 54 32 10 
    340      1540.133 DT     0100 Rx 8  01 23 45 67 89 AB CD EF 
    341      1541.639 DT     0101 Tx 8  FE DC BA 98 76 54 32 10 
    342      1550.187 DT     0100 Rx 8  01 23 45 67 89 AB CD EF 
    343      1551.642 DT     0101 Tx 8  FE DC BA 98 76 54 32 10 
    344      1560.435 DT     0100 Rx 8  01 23 45 67 89 AB CD EF 
    345      1562.005 DT     0101 Tx 8  FE DC BA 98 76 54 32 10 
    346      1570.469 DT     0100 Rx 8  01 23 45 67 89 AB CD EF 
    347      1571.674 DT     0101 Tx 8  FE DC BA 98 76 54 32 10 
    348      1580.119 DT     0100 Rx 8  01 23 45 67 89 AB CD EF 
    349      1581.784 DT     0101 Tx 8  FE DC BA 98 76 54 32 10 
    350      1590.307 DT     0100 Rx 8  01 23 45 67 89 AB CD EF 
    351      1591.743 DT     0101 Tx 8  FE DC BA 98 76 54 32 10 
    352      1600.375 DT     0100 Rx 8  01 23 45 67 89 AB CD EF 
    353      1601.660 DT     0101 Tx 8  FE DC BA 98 76 54 32 10 
    354      1610.228 DT     0100 Rx 8  01 23 45 67 89 AB CD EF 
    355      1611.644 DT     0101 Tx 8  FE DC BA 98 76 54 32 10 
    356      1619.049 DT     0001 Rx 8  06 00 34 56 DE AD BE EF 
    357      1620.193 DT     0100 Rx 8  01 23 45 67 89 AB CD EF 
    358      1621.774 DT     0101 Tx 8  FE DC BA 98 76 54 32 10 
    359      1630.207 DT     0100 Rx 8  01 23 45 67 89 AB CD EF 
    360      1631.655 DT     0101 Tx 8  FE DC BA 98 76 54 32 10 
    361      1640.239 DT     0100 Rx 8  01 23 45 67 89 AB CD EF 
    362      1641.971 DT     0101 Tx 8  FE DC BA 98 76 54 32 10 
    363      1650.156 DT     0100 Rx 8  01 23 45 67 89 AB CD EF 
    364      1651.715 DT     0101 Tx 8  FE DC BA 98 76 54 32 10 
    365      1660.498 DT     0100 Rx 8  01 23 45 67 89 AB CD EF 
    366      1661.738 DT     0101 Tx 8  FE DC BA 98 76 54 32 10 
    367      1670.182 DT     0100 Rx 8  01 23 45 67 89 AB CD EF 
    368      1671.062 DT     0001 Rx 8  1F 00 34 56 DE AD BE EF 
    369      1671.803 DT     0101 Tx 8  FE DC BA 98 76 54 32 10 
    370      1680.168 DT     0100 Rx 8  01 23 45 67 89 AB CD EF 
    371      1681.686 DT     0101 Tx 8  FE DC BA 98 76 54 32 10 
    372      1690.302 DT     0100 Rx 8  01 23 45 67 89 AB CD EF 
    373      1691.939 DT     0101 Tx 8  FE DC BA 98 76 54 32 10 
    374      1693.050 DT     0001 Rx 8  20 00 34 56 DE AD BE EF 
    375      1700.120 DT     0100 Rx 8  01 23 45 67 89 AB CD EF 
    376      1701.783 DT     0101 Tx 8  FE DC BA 98 76 54 32 10 
    377      1707.059 DT     0001 Rx 8  0A 00 34 56 DE AD BE EF 
    378      1710.016 DT     0100 Rx 8  01 23 45 67 89 AB CD EF 
    379      1711.645 DT     0101 Tx 8  FE DC BA 98 76 54 32 10 
    380      1714.952 DT     0001 Rx 8  21 01 34 56 DE AD BE EF 
    381      1720.546 DT     0100 Rx 8  01 23 45 67 89 AB CD EF 
    382      1722.039 DT     0101 Tx 8  FE DC BA 98 76 54 32 10 
    383      1730.381 DT     0100 Rx 8  01 23 45 67 89 AB CD EF 
    384      1732.036 DT     0101 Tx 8  FE DC BA 98 76 54 32 10 
    385      1736.954 DT     0001 Rx 8  22 01 34 56 DE AD BE EF 
    386      1740.462 DT     0100 Rx 8  01 23 45 67 89 AB CD EF 
    387      1742.046 DT     0101 Tx 8  FE DC BA 98 76 54 32 10 
    388      1751.347 DT     0101 Tx 8  FE DC BA 98 76 54 32 10 
    389      1750.738 DT     0100 Rx 8  01 23 45 67 89 AB CD EF 
    390      1750.970 DT     0001 Rx 8  0C 02 34 56 DE AD BE EF 
    391      1759.942 DT     0001 Rx 8  23 02 34 56 DE AD BE EF 
    392      1760.402 DT     0100 Rx 8  01 23 45 67 89 AB CD EF 
    393      1761.190 DT     0101 Tx 8  FE DC BA 98 76 54 32 10 
    394      1770.546 DT     0100 Rx 8  01 23 45 67 89 AB CD EF 
    395      1771.196 DT     0101 Tx 8  FE DC BA 98 76 54 32 10 
    396      1781.344 DT     0101 Tx 8  FE DC BA 98 76 54 32 10 
    397      1780.390 DT     0100 Rx 8  01 23 45 67 89 AB CD EF 
    398      1783.950 DT     0001 Rx 8  24 03 34 56 DE AD BE EF 
    399      1790.402 DT     0100 Rx 8  01 23 45 67 89 AB CD EF 
    400      1792.050 DT     0101 Tx 8  FE DC BA 98 76 54 32 10 
    401      1801.349 DT     0101 Tx 8  FE DC BA 98 76 54 32 10 
    402      1800.752 DT     0100 Rx 8  01 23 45 67 89 AB CD EF 
    403      1805.947 DT     0001 Rx 8  25 03 34 56 DE AD BE EF 
    404      1810.461 DT     0100 Rx 8  01 23 45 67 89 AB CD EF 
    405      1812.136 DT     0101 Tx 8  FE DC BA 98 76 54 32 10 
    406      1820.404 DT     0100 Rx 8  01 23 45 67 89 AB CD EF 
    407      1822.041 DT     0101 Tx 8  FE DC BA 98 76 54 32 10 
    408      1828.944 DT     0001 Rx 8  26 04 34 56 DE AD BE EF 
    409      1830.428 DT     0100 Rx 8  01 23 45 67 89 AB CD EF 
    410      1832.385 DT     0101 Tx 8  FE DC BA 98 76 54 32 10 
    411      1837.943 DT     0001 Rx 8  10 04 34 56 DE AD BE EF 
    412      1841.367 DT     0101 Tx 8  FE DC BA 98 76 54 32 10 
    413      1840.735 DT     0100 Rx 8  01 23 45 67 89 AB CD EF 
    414      1850.445 DT     0100 Rx 8  01 23 45 67 89 AB CD EF 
    415      1852.057 DT     0101 Tx 8  FE DC BA 98 76 54 32 10 
    416      1852.947 DT     0001 Rx 8  27 05 34 56 DE AD BE EF 
    417      1860.701 DT     0100 Rx 8  01 23 45 67 89 AB CD EF 
    418      1862.070 DT     0101 Tx 8  FE DC BA 98 76 54 32 10 
    419      1871.178 DT     0101 Tx 8  FE DC BA 98 76 54 32 10 
    420      1870.415 DT     0100 Rx 8  01 23 45 67 89 AB CD EF 
    421      1875.941 DT     0001 Rx 8  28 05 34 56 DE AD BE EF 
    422      1880.533 DT     0100 Rx 8  01 23 45 67 89 AB CD EF 
    423      1882.164 DT     0101 Tx 8  FE DC BA 98 76 54 32 10 
    424      1891.197 DT     0101 Tx 8  FE DC BA 98 76 54 32 10 
    425      1890.513 DT     0100 Rx 8  01 23 45 67 89 AB CD EF 
    426      1900.397 DT     0100 Rx 8  01 23 45 67 89 AB CD EF 
    427      1902.059 DT     0101 Tx 8  FE DC BA 98 76 54 32 10 
    428      1910.414 DT     0100 Rx 8  01 23 45 67 89 AB CD EF 
    429      1912.142 DT     0101 Tx 8  FE DC BA 98 76 54 32 10 
    430      1920.500 DT     0100 Rx 8  01 23 45 67 89 AB CD EF 
    431      1921.207 DT     0101 Tx 8  FE DC BA 98 76 54 32 10 
    432      1925.825 DT     0001 Rx 8  14 06 34 56 DE AD BE EF 
    433      1931.429 DT     0100 Rx 8  01 23 45 67 89 AB CD EF 
    434      1932.050 DT     0101 Tx 8  FE DC BA 98 76 54 32 10 
    435      1940.407 DT     0100 Rx 8  01 23 45 67 89 AB CD EF 
    436      1942.046 DT     0101 Tx 8  FE DC BA 98 76 54 32 10 
    437      1950.399 DT     0100 Rx 8  01 23 45 67 89 AB CD EF 
    438      1951.107 DT     0101 Tx 8  FE DC BA 98 76 54 32 10 
    439      1960.503 DT     0100 Rx 8  01 23 45 67 89 AB CD EF 
    440      1962.086 DT     0101 Tx 8  FE DC BA 98 76 54 32 10 
    441      1970.447 DT     0100 Rx 8  01 23 45 67 89 AB CD EF 
    442      1971.203 DT     0101 Tx 8  FE DC BA 98 76 54 32 10 
    443      1970.933 DT     0001 Rx 8  16 06 34 56 DE AD BE EF 
    444      1980.499 DT     0100 Rx 8  01 23 45 67 89 AB CD EF 
    445      1982.036 DT     0101 Tx 8  FE DC BA 98 76 54 32 10 
    446      1990.766 DT     0100 Rx 8  01 23 45 67 89 AB CD EF 
    447      1992.086 DT     0101 Tx 8  FE DC BA 98 76 54 32 10 
    448      2001.388 DT     0101 Tx 8  FE DC BA 98 76 54 32 10 
    449      2000.729 DT     0100 Rx 8  01 23 45 67 89 AB CD EF 
    450      2010.423 DT     0100 Rx 8  01 23 45 67 89 AB CD EF 
    451      2012.158 DT     0101 Tx 8  FE DC BA 98 76 54 32 10 
    452      2021.353 DT     0101 Tx 8  FE DC BA 98 76 54 32 10 
    453      2020.725 DT     0100 Rx 8  01 23 45 67 89 AB CD EF 
    454      2031.217 DT     0101 Tx 8  FE DC BA 98 76 54 32 10 
    455      2030.627 DT     0100 Rx 8  01 23 45 67 89 AB CD EF 
    456      2040.577 DT     0100 Rx 8  01 23 45 67 89 AB CD EF 
    457      2042.048 DT     0101 Tx 8  FE DC BA 98 76 54 32 10 
    458      2051.352 DT     0101 Tx 8  FE DC BA 98 76 54 32 10 
    459      2050.697 DT     0100 Rx 8  01 23 45 67 89 AB CD EF 
    460      2057.820 DT     0001 Rx 8  1A 06 34 56 DE AD BE EF 
    461      2060.576 DT     0100 Rx 8  01 23 45 67 89 AB CD EF 
    462      2062.045 DT     0101 Tx 8  FE DC BA 98 76 54 32 10 
    463      2070.399 DT     0100 Rx 8  01 23 45 67 89 AB CD EF 
    464      2072.055 DT     0101 Tx 8  FE DC BA 98 76 54 32 10 
    465      2080.411 DT     0100 Rx 8  01 23 45 67 89 AB CD EF 
    466      2081.274 DT     0101 Tx 8  FE DC BA 98 76 54 32 10 
    467      2091.317 DT     0101 Tx 8  FE DC BA 98 76 54 32 10 
    468      2090.725 DT     0100 Rx 8  01 23 45 67 89 AB CD EF 
    469      2100.413 DT     0100 Rx 8  01 23 45 67 89 AB CD EF 
    470      2102.072 DT     0101 Tx 8  FE DC BA 98 76 54 32 10 
    471      2110.409 DT     0100 Rx 8  01 23 45 67 89 AB CD EF 
    472      2112.040 DT     0101 Tx 8  FE DC BA 98 76 54 32 10 
    473      2120.407 DT     0100 Rx 8  01 23 45 67 89 AB CD EF 
    474      2122.058 DT     0101 Tx 8  FE DC BA 98 76 54 32 10 
    475      2130.443 DT     0100 Rx 8  01 23 45 67 89 AB CD EF 
    476      2132.063 DT     0101 Tx 8  FE DC BA 98 76 54 32 10 
    477      2140.405 DT     0100 Rx 8  01 23 45 67 89 AB CD EF 
    478      2142.067 DT     0101 Tx 8  FE DC BA 98 76 54 32 10 
    479      2146.801 DT     0001 Rx 8  1E 06 34 56 DE AD BE EF 
    480      2150.441 DT     0100 Rx 8  01 23 45 67 89 AB CD EF 
    481      2150.937 DT     0001 Rx 8  29 07 34 56 DE AD BE EF 
    482      2152.097 DT     0101 Tx 8  FE DC BA 98 76 54 32 10 
    483      2160.441 DT     0100 Rx 8  01 23 45 67 89 AB CD EF 
    484      2162.066 DT     0101 Tx 8  FE DC BA 98 76 54 32 10 
    485      2170.404 DT     0100 Rx 8  01 23 45 67 89 AB CD EF 
    486      2172.099 DT     0101 Tx 8  FE DC BA 98 76 54 32 10 
    487      2172.938 DT     0001 Rx 8  2A 07 34 56 DE AD BE EF 
    488      2180.416 DT     0100 Rx 8  01 23 45 67 89 AB CD EF 
    489      2182.094 DT     0101 Tx 8  FE DC BA 98 76 54 32 10 
    490      2190.444 DT     0100 Rx 8  01 23 45 67 89 AB CD EF 
    491      2192.045 DT     0101 Tx 8  FE DC BA 98 76 54 32 10 
    492      2194.928 DT     0001 Rx 8  2B 07 34 56 DE AD BE EF 
    493      2200.444 DT     0100 Rx 8  01 23 45 67 89 AB CD EF 
    494      2202.075 DT     0101 Tx 8  FE DC BA 98 76 54 32 10 
    495      2210.396 DT     0100 Rx 8  01 23 45 67 89 AB CD EF 
    496      2212.063 DT     0101 Tx 8  FE DC BA 98 76 54 32 10 
    497      2216.804 DT     0001 Rx 8  2C 07 34 56 DE AD BE EF 
    498      2220.396 DT     0100 Rx 8  01 23 45 67 89 AB CD EF 
    499      2222.056 DT     0101 Tx 8  FE DC BA 98 76 54 32 10 
    500      2230.444 DT     0100 Rx 8  01 23 45 67 89 AB CD EF 
    501      2232.061 DT     0101 Tx 8  FE DC BA 98 76 54 32 10 
    502      2238.808 DT     0001 Rx 8  2D 08 34 56 DE AD BE EF 
    503      2240.438 DT     0100 Rx 8  01 23 45 67 89 AB CD EF 
    504      2242.065 DT     0101 Tx 8  FE DC BA 98 76 54 32 10 
    505      2250.418 DT     0100 Rx 8  01 23 45 67 89 AB CD EF 
    506      2252.039 DT     0101 Tx 8  FE DC BA 98 76 54 32 10 
    507      2260.392 DT     0100 Rx 8  01 23 45 67 89 AB CD EF 
    508      2260.930 DT     0001 Rx 8  2E 08 34 56 DE AD BE EF 
    509      2262.046 DT     0101 Tx 8  FE DC BA 98 76 54 32 10 
    510      2270.426 DT     0100 Rx 8  01 23 45 67 89 AB CD EF 
    511      2272.089 DT     0101 Tx 8  FE DC BA 98 76 54 32 10 
    512      2280.402 DT     0100 Rx 8  01 23 45 67 89 AB CD EF 
    513      2282.060 DT     0101 Tx 8  FE DC BA 98 76 54 32 10 
    514      2282.920 DT     0001 Rx 8  2F 08 34 56 DE AD BE EF 
    515      2290.442 DT     0100 Rx 8  01 23 45 67 89 AB CD EF 
    516      2292.041 DT     0101 Tx 8  FE DC BA 98 76 54 32 10 
    517      2300.450 DT     0100 Rx 8  01 23 45 67 89 AB CD EF 
    518      2302.046 DT     0101 Tx 8  FE DC BA 98 76 54 32 10 
    519      2304.922 DT     0001 Rx 8  30 08 34 56 DE AD BE EF 
    520      2310.414 DT     0100 Rx 8  01 23 45 67 89 AB CD EF 
    521      2312.060 DT     0101 Tx 8  FE DC BA 98 76 54 32 10 
    522      2320.446 DT     0100 Rx 8  01 23 45 67 89 AB CD EF 
    523      2322.067 DT     0101 Tx 8  FE DC BA 98 76 54 32 10 
    524      2326.801 DT     0001 Rx 8  31 09 34 56 DE AD BE EF 
    525      2330.439 DT     0100 Rx 8  01 23 45 67 89 AB CD EF 
    526      2332.043 DT     0101 Tx 8  FE DC BA 98 76 54 32 10 
    527      2340.411 DT     0100 Rx 8  01 23 45 67 89 AB CD EF 
    528      2342.053 DT     0101 Tx 8  FE DC BA 98 76 54 32 10 
    529      2348.791 DT     0001 Rx 8  32 09 34 56 DE AD BE EF 
    530      2350.447 DT     0100 Rx 8  01 23 45 67 89 AB CD EF 
    531      2352.043 DT     0101 Tx 8  FE DC BA 98 76 54 32 10 
    532      2360.399 DT     0100 Rx 8  01 23 45 67 89 AB CD EF 
    533      2362.110 DT     0101 Tx 8  FE DC BA 98 76 54 32 10 
    534      2370.413 DT     0100 Rx 8  01 23 45 67 89 AB CD EF 
    535      2372.074 DT     0101 Tx 8  FE DC BA 98 76 54 32 10 
    536      2380.411 DT     0100 Rx 8  01 23 45 67 89 AB CD EF 
    537      2382.044 DT     0101 Tx 8  FE DC BA 98 76 54 32 10 
    538      2390.451 DT     0100 Rx 8  01 23 45 67 89 AB CD EF 
    539      2392.042 DT     0101 Tx 8  FE DC BA 98 76 54 32 10 
    540      2400.407 DT     0100 Rx 8  01 23 45 67 89 AB CD EF 
    541      2402.062 DT     0101 Tx 8  FE DC BA 98 76 54 32 10 
    542      2410.415 DT     0100 Rx 8  01 23 45 67 89 AB CD EF 
    543      2412.041 DT     0101 Tx 8  FE DC BA 98 76 54 32 10 
    544      2420.417 DT     0100 Rx 8  01 23 45 67 89 AB CD EF 
    545      2422.046 DT     0101 Tx 8  FE DC BA 98 76 54 32 10 
    546      2430.447 DT     0100 Rx 8  01 23 45 67 89 AB CD EF 
    547      2432.049 DT     0101 Tx 8  FE DC BA 98 76 54 32 10 
    548      2440.463 DT     0100 Rx 8  01 23 45 67 89 AB CD EF 
    549      2442.051 DT     0101 Tx 8  FE DC BA 98 76 54 32 10 
    550      2450.398 DT     0100 Rx 8  01 23 45 67 89 AB CD EF 
    551      2452.053 DT     0101 Tx 8  FE DC BA 98 76 54 32 10 
    552      2460.442 DT     0100 Rx 8  01 23 45 67 89 AB CD EF 
    553      2462.045 DT     0101 Tx 8  FE DC BA 98 76 54 32 10 
    554      2470.424 DT     0100 Rx 8  01 23 45 67 89 AB CD EF 
    555      2472.048 DT     0101 Tx 8  FE DC BA 98 76 54 32 10 
    556      2480.440 DT     0100 Rx 8  01 23 45 67 89 AB CD EF 
    557      2482.071 DT     0101 Tx 8  FE DC BA 98 76 54 32 10 
    558      2490.454 DT     0100 Rx 8  01 23 45 67 89 AB CD EF 
    559      2492.049 DT     0101 Tx 8  FE DC BA 98 76 54 32 10 
    560      2500.412 DT     0100 Rx 8  01 23 45 67 89 AB CD EF 
    561      2502.055 DT     0101 Tx 8  FE DC BA 98 76 54 32 10 
    562      2510.434 DT     0100 Rx 8  01 23 45 67 89 AB CD EF 
    563      2512.074 DT     0101 Tx 8  FE DC BA 98 76 54 32 10 
    564      2520.417 DT     0100 Rx 8  01 23 45 67 89 AB CD EF 
    565      2522.049 DT     0101 Tx 8  FE DC BA 98 76 54 32 10 
    566      2530.437 DT     0100 Rx 8  01 23 45 67 89 AB CD EF 
    567      2532.063 DT     0101 Tx 8  FE DC BA 98 76 54 32 10 
    568      2540.439 DT     0100 Rx 8  01 23 45 67 89 AB CD EF 
    569      2542.041 DT     0101 Tx 8  FE DC BA 98 76 54 32 10 
    570      2550.485 DT     0100 Rx 8  01 23 45 67 89 AB CD EF 
    571      2552.049 DT     0101 Tx 8  FE DC BA 98 76 54 32 10 
    572      2560.401 DT     0100 Rx 8  01 23 45 67 89 AB CD EF 
    573      2562.045 DT     0101 Tx 8  FE DC BA 98 76 54 32 10 
    574      2570.409 DT     0100 Rx 8  01 23 45 67 89 AB CD EF 
    575      2572.045 DT     0101 Tx 8  FE DC BA 98 76 54 32 10 
    576      2580.451 DT     0100 Rx 8  01 23 45 67 89 AB CD EF 
    577      2582.042 DT     0101 Tx 8  FE DC BA 98 76 54 32 10 
    578      2590.404 DT     0100 Rx 8  01 23 45 67 89 AB CD EF 
    579      2592.038 DT     0101 Tx 8  FE DC BA 98 76 54 32 10 
    580      2600.412 DT     0100 Rx 8  01 23 45 67 89 AB CD EF 
    581      2602.053 DT     0101 Tx 8  FE DC BA 98 76 54 32 10 
    582      2610.406 DT     0100 Rx 8  01 23 45 67 89 AB CD EF 
    583      2612.050 DT     0101 Tx 8  FE DC BA 98 76 54 32 10 
    584      2620.402 DT     0100 Rx 8  01 23 45 67 89 AB CD EF 
    585      2622.048 DT     0101 Tx 8  FE DC BA 98 76 54 32 10 
    586      2630.402 DT     0100 Rx 8  01 23 45 67 89 AB CD EF 
    587      2632.044 DT     0101 Tx 8  FE DC BA 98 76 54 32 10 
    588      2640.408 DT     0100 Rx 8  01 23 45 67 89 AB CD EF 
    589      2642.052 DT     0101 Tx 8  FE DC BA 98 76 54 32 10 
    590      2650.408 DT     0100 Rx 8  01 23 45 67 89 AB CD EF 
    591      2652.059 DT     0101 Tx 8  FE DC BA 98 76 54 32 10 
    592      2660.406 DT     0100 Rx 8  01 23 45 67 89 AB CD EF 
    593      2662.044 DT     0101 Tx 8  FE DC BA 98 76 54 32 10 
    594      2670.416 DT     0100 Rx 8  01 23 45 67 89 AB CD EF 
    595      2672.041 DT     0101 Tx 8  FE DC BA 98 76 54 32 10 
    596      2680.484 DT     0100 Rx 8  01 23 45 67 89 AB CD EF 
    597      2682.068 DT     0101 Tx 8  FE DC BA 98 76 54 32 10 
    598      2690.410 DT     0100 Rx 8  01 23 45 67 89 AB CD EF 
    599      2692.053 DT     0101 Tx 8  FE DC BA 98 76 54 32 10 
    600      2700.421 DT     0100 Rx 8  01 23 45 67 89 AB CD EF 
    601      2702.091 DT     0101 Tx 8  FE DC BA 98 76 54 32 10 
    602      2708.889 DT     0001 Rx 8  0A 00 34 56 DE AD BE EF 
    603      2710.515 DT     0100 Rx 8  01 23 45 67 89 AB CD EF 
    604      2712.051 DT     0101 Tx 8  FE DC BA 98 76 54 32 10 
    605      2720.535 DT     0100 Rx 8  01 23 45 67 89 AB CD EF 
    606      2722.067 DT     0101 Tx 8  FE DC BA 98 76 54 32 10 
    607      2730.577 DT     0100 Rx 8  01 23 45 67 89 AB CD EF 
    608      2732.042 DT     0101 Tx 8  FE DC BA 98 76 54 32 10 
    609      2739.007 DT     0001 Rx 8  22 00 34 56 DE AD BE EF 
    610      2740.513 DT     0100 Rx 8  01 23 45 67 89 AB CD EF 
    611      2742.047 DT     0101 Tx 8  FE DC BA 98 76 54 32 10 
    612      2750.515 DT     0100 Rx 8  01 23 45 67 89 AB CD EF 
    613      2752.083 DT     0101 Tx 8  FE DC BA 98 76 54 32 10 
    614      2760.504 DT     0100 Rx 8  01 23 45 67 89 AB CD EF 
    615      2760.875 DT     0001 Rx 8  23 01 34 56 DE AD BE EF 
    616      2762.045 DT     0101 Tx 8  FE DC BA 98 76 54 32 10 
    617      2771.225 DT     0101 Tx 8  FE DC BA 98 76 54 32 10 
    618      2770.651 DT     0100 Rx 8  01 23 45 67 89 AB CD EF 
    619      2780.738 DT     0100 Rx 8  01 23 45 67 89 AB CD EF 
    620      2782.229 DT     0101 Tx 8  FE DC BA 98 76 54 32 10 
    621      2790.538 DT     0100 Rx 8  01 23 45 67 89 AB CD EF 
    622      2792.063 DT     0101 Tx 8  FE DC BA 98 76 54 32 10 
    623      2801.202 DT     0101 Tx 8  FE DC BA 98 76 54 32 10 
    624      2800.684 DT     0100 Rx 8  01 23 45 67 89 AB CD EF 
    625      2807.878 DT     0001 Rx 8  25 01 34 56 DE AD BE EF 
    626      2810.666 DT     0100 Rx 8  01 23 45 67 89 AB CD EF 
    627      2812.043 DT     0101 Tx 8  FE DC BA 98 76 54 32 10 
    628      2820.536 DT     0100 Rx 8  01 23 45 67 89 AB CD EF 
    629      2822.064 DT     0101 Tx 8  FE DC BA 98 76 54 32 10 
    630      2830.498 DT     0100 Rx 8  01 23 45 67 89 AB CD EF 
    631      2831.175 DT     0101 Tx 8  FE DC BA 98 76 54 32 10 
    632      2839.885 DT     0001 Rx 8  10 02 34 56 DE AD BE EF 
    633      2840.498 DT     0100 Rx 8  01 23 45 67 89 AB CD EF 
    634      2842.150 DT     0101 Tx 8  FE DC BA 98 76 54 32 10 
    635      2850.533 DT     0100 Rx 8  01 23 45 67 89 AB CD EF 
    636      2852.066 DT     0101 Tx 8  FE DC BA 98 76 54 32 10 
    637      2861.211 DT     0101 Tx 8  FE DC BA 98 76 54 32 10 
    638      2860.615 DT     0100 Rx 8  01 23 45 67 89 AB CD EF 
    639      2870.634 DT     0100 Rx 8  01 23 45 67 89 AB CD EF 
    640      2872.043 DT     0101 Tx 8  FE DC BA 98 76 54 32 10 
    641      2876.878 DT     0001 Rx 8  28 02 34 56 DE AD BE EF 
    642      2877.114 DT     0001 Rx 8  33 03 34 56 DE AD BE EF 
    643      2880.582 DT     0100 Rx 8  01 23 45 67 89 AB CD EF 
    644      2881.152 DT     0101 Tx 8  FE DC BA 98 76 54 32 10 
    645      2891.121 DT     0101 Tx 8  FE DC BA 98 76 54 32 10 
    646      2890.586 DT     0100 Rx 8  01 23 45 67 89 AB CD EF 
    647      2899.875 DT     0001 Rx 8  34 03 34 56 DE AD BE EF 
    648      2900.801 DT     0100 Rx 8  01 23 45 67 89 AB CD EF 
    649      2902.288 DT     0101 Tx 8  FE DC BA 98 76 54 32 10 
    650      2911.311 DT     0101 Tx 8  FE DC BA 98 76 54 32 10 
    651      2910.799 DT     0100 Rx 8  01 23 45 67 89 AB CD EF 
    652      2920.673 DT     0100 Rx 8  01 23 45 67 89 AB CD EF 
    653      2922.040 DT     0101 Tx 8  FE DC BA 98 76 54 32 10 
    654      2922.867 DT     0001 Rx 8  35 04 34 56 DE AD BE EF 
    655      2931.270 DT     0101 Tx 8  FE DC BA 98 76 54 32 10 
    656      2930.497 DT     0100 Rx 8  01 23 45 67 89 AB CD EF 
    657      2941.176 DT     0101 Tx 8  FE DC BA 98 76 54 32 10 
    658      2940.797 DT     0100 Rx 8  01 23 45 67 89 AB CD EF 
    659      2945.865 DT     0001 Rx 8  36 04 34 56 DE AD BE EF 
    660      2950.579 DT     0100 Rx 8  01 23 45 67 89 AB CD EF 
    661      2952.045 DT     0101 Tx 8  FE DC BA 98 76 54 32 10 
    662      2960.505 DT     0100 Rx 8  01 23 45 67 89 AB CD EF 
    663      2962.055 DT     0101 Tx 8  FE DC BA 98 76 54 32 10 
    664      2968.870 DT     0001 Rx 8  37 05 34 56 DE AD BE EF 
    665      2971.344 DT     0101 Tx 8  FE DC BA 98 76 54 32 10 
    666      2970.800 DT     0100 Rx 8  01 23 45 67 89 AB CD EF 
    667      2981.148 DT     0101 Tx 8  FE DC BA 98 76 54 32 10 
    668      2980.600 DT     0100 Rx 8  01 23 45 67 89 AB CD EF 
    669      2990.544 DT     0100 Rx 8  01 23 45 67 89 AB CD EF 
    670      2992.065 DT     0101 Tx 8  FE DC BA 98 76 54 32 10 
    671      2991.876 DT     0001 Rx 8  38 05 34 56 DE AD BE EF 
    672      3001.430 DT     0101 Tx 8  FE DC BA 98 76 54 32 10 
    673      3000.662 DT     0100 Rx 8  01 23 45 67 89 AB CD EF 
    674      3010.666 DT     0100 Rx 8  01 23 45 67 89 AB CD EF 
    675      3012.041 DT     0101 Tx 8  FE DC BA 98 76 54 32 10 
    676      3014.998 DT     0001 Rx 8  39 05 34 56 DE AD BE EF 
    677      3021.162 DT     0101 Tx 8  FE DC BA 98 76 54 32 10 
    678      3020.622 DT     0100 Rx 8  01 23 45 67 89 AB CD EF 
    679      3030.491 DT     0100 Rx 8  01 23 45 67 89 AB CD EF 
    680      3032.367 DT     0101 Tx 8  FE DC BA 98 76 54 32 10 
    681      3036.866 DT     0001 Rx 8  3A 05 34 56 DE AD BE EF 
    682      3041.160 DT     0101 Tx 8  FE DC BA 98 76 54 32 10 
    683      3040.502 DT     0100 Rx 8  01 23 45 67 89 AB CD EF 
    684      3051.295 DT     0101 Tx 8  FE DC BA 98 76 54 32 10 
    685      3050.724 DT     0100 Rx 8  01 23 45 67 89 AB CD EF 
    686      3061.254 DT     0101 Tx 8  FE DC BA 98 76 54 32 10 
    687      3060.836 DT     0100 Rx 8  01 23 45 67 89 AB CD EF 
    688      3070.540 DT     0100 Rx 8  01 23 45 67 89 AB CD EF 
    689      3072.047 DT     0101 Tx 8  FE DC BA 98 76 54 32 10 
    690      3080.516 DT     0100 Rx 8  01 23 45 67 89 AB CD EF 
    691      3082.068 DT     0101 Tx 8  FE DC BA 98 76 54 32 10 
    692      3090.670 DT     0100 Rx 8  01 23 45 67 89 AB CD EF 
    693      3091.131 DT     0101 Tx 8  FE DC BA 98 76 54 32 10 
    694      3101.181 DT     0101 Tx 8  FE DC BA 98 76 54 32 10 
    695      3100.800 DT     0100 Rx 8  01 23 45 67 89 AB CD EF 
    696      3111.186 DT     0101 Tx 8  FE DC BA 98 76 54 32 10 
    697      3110.658 DT     0100 Rx 8  01 23 45 67 89 AB CD EF 
    698      3120.630 DT     0100 Rx 8  01 23 45 67 89 AB CD EF 
    699      3121.150 DT     0101 Tx 8  FE DC BA 98 76 54 32 10 
    700      3130.596 DT     0100 Rx 8  01 23 45 67 89 AB CD EF 
    701      3132.046 DT     0101 Tx 8  FE DC BA 98 76 54 32 10 
    702      3141.268 DT     0101 Tx 8  FE DC BA 98 76 54 32 10 
    703      3140.700 DT     0100 Rx 8  01 23 45 67 89 AB CD EF 
    704      3147.990 DT     0001 Rx 8  1E 06 34 56 DE AD BE EF 
    705      3150.808 DT     0100 Rx 8  01 23 45 67 89 AB CD EF 
    706      3152.361 DT     0101 Tx 8  FE DC BA 98 76 54 32 10 
    707      3161.338 DT     0101 Tx 8  FE DC BA 98 76 54 32 10 
    708      3160.808 DT     0100 Rx 8  01 23 45 67 89 AB CD EF 
    709      3170.578 DT     0100 Rx 8  01 23 45 67 89 AB CD EF 
    710      3172.227 DT     0101 Tx 8  FE DC BA 98 76 54 32 10 
    711      3180.510 DT     0100 Rx 8  01 23 45 67 89 AB CD EF 
    712      3182.068 DT     0101 Tx 8  FE DC BA 98 76 54 32 10 
    713      3190.637 DT     0100 Rx 8  01 23 45 67 89 AB CD EF 
    714      3192.372 DT     0101 Tx 8  FE DC BA 98 76 54 32 10 
    715      3201.171 DT     0101 Tx 8  FE DC BA 98 76 54 32 10 
    716      3200.690 DT     0100 Rx 8  01 23 45 67 89 AB CD EF 
    717      3210.498 DT     0100 Rx 8  01 23 45 67 89 AB CD EF 
    718      3212.063 DT     0101 Tx 8  FE DC BA 98 76 54 32 10 
    719      3218.987 DT     0001 Rx 8  2C 06 34 56 DE AD BE EF 
    720      3220.815 DT     0100 Rx 8  01 23 45 67 89 AB CD EF 
    721      3222.058 DT     0101 Tx 8  FE DC BA 98 76 54 32 10 
    722      3231.368 DT     0101 Tx 8  FE DC BA 98 76 54 32 10 
    723      3230.497 DT     0100 Rx 8  01 23 45 67 89 AB CD EF 
    724      3239.875 DT     0100 Rx 8  01 23 45 67 89 AB CD EF 
    725      3241.355 DT     0101 Tx 8  FE DC BA 98 76 54 32 10 
    726      3250.769 DT     0100 Rx 8  01 23 45 67 89 AB CD EF 
    727      3252.334 DT     0101 Tx 8  FE DC BA 98 76 54 32 10 
    728      3260.499 DT     0100 Rx 8  01 23 45 67 89 AB CD EF 
    729      3261.118 DT     0101 Tx 8  FE DC BA 98 76 54 32 10 
    730      3271.346 DT     0101 Tx 8  FE DC BA 98 76 54 32 10 
    731      3270.799 DT     0100 Rx 8  01 23 45 67 89 AB CD EF 
    732      3281.210 DT     0101 Tx 8  FE DC BA 98 76 54 32 10 
    733      3280.803 DT     0100 Rx 8  01 23 45 67 89 AB CD EF 
    734      3290.791 DT     0100 Rx 8  01 23 45 67 89 AB CD EF 
    735      3292.053 DT     0101 Tx 8  FE DC BA 98 76 54 32 10 
    736      3300.503 DT     0100 Rx 8  01 23 45 67 89 AB CD EF 
    737      3302.397 DT     0101 Tx 8  FE DC BA 98 76 54 32 10 
    738      3306.973 DT     0001 Rx 8  30 07 34 56 DE AD BE EF 
    739      3311.193 DT     0101 Tx 8  FE DC BA 98 76 54 32 10 
    740      3310.845 DT     0100 Rx 8  01 23 45 67 89 AB CD EF 
    741      3311.975 DT     0001 Rx 8  3B 07 34 56 DE AD BE EF 
    742      3320.649 DT     0100 Rx 8  01 23 45 67 89 AB CD EF 
    743      3322.055 DT     0101 Tx 8  FE DC BA 98 76 54 32 10 
    744      3330.506 DT     0100 Rx 8  01 23 45 67 89 AB CD EF 
    745      3331.324 DT     0101 Tx 8  FE DC BA 98 76 54 32 10 
    746      3335.977 DT     0001 Rx 8  3C 07 34 56 DE AD BE EF 
    747      3340.793 DT     0100 Rx 8  01 23 45 67 89 AB CD EF 
    748      3342.057 DT     0101 Tx 8  FE DC BA 98 76 54 32 10 
    749      3350.542 DT     0100 Rx 8  01 23 45 67 89 AB CD EF 
    750      3350.973 DT     0001 Rx 8  32 07 34 56 DE AD BE EF 
    751      3352.079 DT     0101 Tx 8  FE DC BA 98 76 54 32 10 
    752      3358.980 DT     0001 Rx 8  3D 07 34 56 DE AD BE EF 
    753      3360.478 DT     0100 Rx 8  01 23 45 67 89 AB CD EF 
    754      3362.069 DT     0101 Tx 8  FE DC BA 98 76 54 32 10 
    755      3370.511 DT     0100 Rx 8  01 23 45 67 89 AB CD EF 
    756      3372.057 DT     0101 Tx 8  FE DC BA 98 76 54 32 10 
    757      3380.517 DT     0100 Rx 8  01 23 45 67 89 AB CD EF 
    758      3380.977 DT     0001 Rx 8  3E 07 34 56 DE AD BE EF 
    759      3382.038 DT     0101 Tx 8  FE DC BA 98 76 54 32 10 
    760      3390.535 DT     0100 Rx 8  01 23 45 67 89 AB CD EF 
    761      3392.044 DT     0101 Tx 8  FE DC BA 98 76 54 32 10 
    762      3400.532 DT     0100 Rx 8  01 23 45 67 89 AB CD EF 
    763      3402.040 DT     0101 Tx 8  FE DC BA 98 76 54 32 10 
    764      3402.977 DT     0001 Rx 8  3F 07 34 56 DE AD BE EF 
    765      3410.585 DT     0100 Rx 8  01 23 45 67 89 AB CD EF 
    766      3412.073 DT     0101 Tx 8  FE DC BA 98 76 54 32 10 
    767      3420.538 DT     0100 Rx 8  01 23 45 67 89 AB CD EF 
    768      3422.070 DT     0101 Tx 8  FE DC BA 98 76 54 32 10 
    769      3424.975 DT     0001 Rx 8  40 07 34 56 DE AD BE EF 
    770      3430.545 DT     0100 Rx 8  01 23 45 67 89 AB CD EF 
    771      3432.052 DT     0101 Tx 8  FE DC BA 98 76 54 32 10 
    772      3440.503 DT     0100 Rx 8  01 23 45 67 89 AB CD EF 
    773      3442.048 DT     0101 Tx 8  FE DC BA 98 76 54 32 10 
    774      3446.985 DT     0001 Rx 8  41 08 34 56 DE AD BE EF 
    775      3450.509 DT     0100 Rx 8  01 23 45 67 89 AB CD EF 
    776      3452.045 DT     0101 Tx 8  FE DC BA 98 76 54 32 10 
    777      3460.526 DT     0100 Rx 8  01 23 45 67 89 AB CD EF 
    778      3462.075 DT     0101 Tx 8  FE DC BA 98 76 54 32 10 
    779      3468.968 DT     0001 Rx 8  42 08 34 56 DE AD BE EF 
    780      3470.501 DT     0100 Rx 8  01 23 45 67 89 AB CD EF 
    781      3472.040 DT     0101 Tx 8  FE DC BA 98 76 54 32 10 
    782      3480.498 DT     0100 Rx 8  01 23 45 67 89 AB CD EF 
    783      3482.046 DT     0101 Tx 8  FE DC BA 98 76 54 32 10 
    784      3490.548 DT     0100 Rx 8  01 23 45 67 89 AB CD EF 
    785      3490.974 DT     0001 Rx 8  43 09 34 56 DE AD BE EF 
    786      3492.054 DT     0101 Tx 8  FE DC BA 98 76 54 32 10 
    787      3500.544 DT     0100 Rx 8  01 23 45 67 89 AB CD EF 
    788      3502.043 DT     0101 Tx 8  FE DC BA 98 76 54 32 10 
    789      3510.552 DT     0100 Rx 8  01 23 45 67 89 AB CD EF 
    790      3512.048 DT     0101 Tx 8  FE DC BA 98 76 54 32 10 
    791      3512.971 DT     0001 Rx 8  44 09 34 56 DE AD BE EF 
    792      3520.500 DT     0100 Rx 8  01 23 45 67 89 AB CD EF 
    793      3522.045 DT     0101 Tx 8  FE DC BA 98 76 54 32 10 
    794      3530.502 DT     0100 Rx 8  01 23 45 67 89 AB CD EF 
    795      3532.046 DT     0101 Tx 8  FE DC BA 98 76 54 32 10 
    796      3534.967 DT     0001 Rx 8  45 09 34 56 DE AD BE EF 
    797      3540.501 DT     0100 Rx 8  01 23 45 67 89 AB CD EF 
    798      3542.039 DT     0101 Tx 8  FE DC BA 98 76 54 32 10 
    799      3550.541 DT     0100 Rx 8  01 23 45 67 89 AB CD EF 
    800      3552.070 DT     0101 Tx 8  FE DC BA 98 76 54 32 10 
    801      3556.961 DT     0001 Rx 8  46 09 34 56 DE AD BE EF 
    802      3560.513 DT     0100 Rx 8  01 23 45 67 89 AB CD EF 
    803      3562.052 DT     0101 Tx 8  FE DC BA 98 76 54 32 10 
    804      3570.501 DT     0100 Rx 8  01 23 45 67 89 AB CD EF 
    805      3572.056 DT     0101 Tx 8  FE DC BA 98 76 54 32 10 
    806      3580.539 DT     0100 Rx 8  01 23 45 67 89 AB CD EF 
    807      3582.042 DT     0101 Tx 8  FE DC BA 98 76 54 32 10 
    808      3590.505 DT     0100 Rx 8  01 23 45 67 89 AB CD EF 
    809      3592.058 DT     0101 Tx 8  FE DC BA 98 76 54 32 10 
    810      3600.547 DT     0100 Rx 8  01 23 45 67 89 AB CD EF 
    811      3602.080 DT     0101 Tx 8  FE DC BA 98 76 54 32 10 
    812      3610.501 DT     0100 Rx 8  01 23 45 67 89 AB CD EF 
    813      3612.081 DT     0101 Tx 8  FE DC BA 98 76 54 32 10 
    814      3620.543 DT     0100 Rx 8  01 23 45 67 89 AB CD EF 
    815      3622.061 DT     0101 Tx 8  FE DC BA 98 76 54 32 10 
    816      3630.497 DT     0100 Rx 8  01 23 45 67 89 AB CD EF 
    817      3632.043 DT     0101 Tx 8  FE DC BA 98 76 54 32 10 
    818      3640.499 DT     0100 Rx 8  01 23 45 67 89 AB CD EF 
    819      3642.042 DT     0101 Tx 8  FE DC BA 98 76 54 32 10 
    820      3650.499 DT     0100 Rx 8  01 23 45 67 89 AB CD EF 
    821      3652.050 DT     0101 Tx 8  FE DC BA 98 76 54 32 10 
    822      3660.517 DT     0100 Rx 8  01 23 45 67 89 AB CD EF 
    823      3662.044 DT     0101 Tx 8  FE DC BA 98 76 54 32 10 
    824      3670.506 DT     0100 Rx 8  01 23 45 67 89 AB CD EF 
    825      3672.061 DT     0101 Tx 8  FE DC BA 98 76 54 32 10 
    826      3680.556 DT     0100 Rx 8  01 23 45 67 89 AB CD EF 
    827      3682.059 DT     0101 Tx 8  FE DC BA 98 76 54 32 10 
    828      3690.492 DT     0100 Rx 8  01 23 45 67 89 AB CD EF 
    829      3692.039 DT     0101 Tx 8  FE DC BA 98 76 54 32 10 
    830      3700.509 DT     0100 Rx 8  01 23 45 67 89 AB CD EF 
    831      3702.041 DT     0101 Tx 8  FE DC BA 98 76 54 32 10 
    832      3710.535 DT     0100 Rx 8  01 23 45 67 89 AB CD EF 
    833      3712.080 DT     0101 Tx 8  FE DC BA 98 76 54 32 10 
    834      3720.509 DT     0100 Rx 8  01 23 45 67 89 AB CD EF 
    835      3722.061 DT     0101 Tx 8  FE DC BA 98 76 54 32 10 
    836      3730.487 DT     0100 Rx 8  01 23 45 67 89 AB CD EF 
    837      3732.048 DT     0101 Tx 8  FE DC BA 98 76 54 32 10 
    838      3740.503 DT     0100 Rx 8  01 23 45 67 89 AB CD EF 
    839      3740.967 DT     0001 Rx 8  22 00 34 56 DE AD BE EF 
    840      3742.050 DT     0101 Tx 8  FE DC BA 98 76 54 32 10 
    841      3750.547 DT     0100 Rx 8  01 23 45 67 89 AB CD EF 
    842      3752.047 DT     0101 Tx 8  FE DC BA 98 76 54 32 10 
    843      3760.551 DT     0100 Rx 8  01 23 45 67 89 AB CD EF 
    844      3762.095 DT     0101 Tx 8  FE DC BA 98 76 54 32 10 
    845      3770.535 DT     0100 Rx 8  01 23 45 67 89 AB CD EF 
    846      3772.048 DT     0101 Tx 8  FE DC BA 98 76 54 32 10 
    847      3780.543 DT     0100 Rx 8  01 23 45 67 89 AB CD EF 
    848      3782.058 DT     0101 Tx 8  FE DC BA 98 76 54 32 10 
    849      3790.579 DT     0100 Rx 8  01 23 45 67 89 AB CD EF 
    850      3792.080 DT     0101 Tx 8  FE DC BA 98 76 54 32 10 
    851      3800.545 DT     0100 Rx 8  01 23 45 67 89 AB CD EF 
    852      3802.056 DT     0101 Tx 8  FE DC BA 98 76 54 32 10 
    853      3808.835 DT     0001 Rx 8  25 00 34 56 DE AD BE EF 
    854      3810.541 DT     0100 Rx 8  01 23 45 67 89 AB CD EF 
    855      3812.062 DT     0101 Tx 8  FE DC BA 98 76 54 32 10 
    856      3820.537 DT     0100 Rx 8  01 23 45 67 89 AB CD EF 
    857      3822.077 DT     0101 Tx 8  FE DC BA 98 76 54 32 10 
    858      3830.641 DT     0100 Rx 8  01 23 45 67 89 AB CD EF 
    859      3830.871 DT     0001 Rx 8  47 01 34 56 DE AD BE EF 
    860      3832.065 DT     0101 Tx 8  FE DC BA 98 76 54 32 10 
    861      3840.563 DT     0100 Rx 8  01 23 45 67 89 AB CD EF 
    862      3842.066 DT     0101 Tx 8  FE DC BA 98 76 54 32 10 
    863      3850.559 DT     0100 Rx 8  01 23 45 67 89 AB CD EF 
    864      3852.054 DT     0101 Tx 8  FE DC BA 98 76 54 32 10 
    865      3852.831 DT     0001 Rx 8  48 01 34 56 DE AD BE EF 
    866      3860.501 DT     0100 Rx 8  01 23 45 67 89 AB CD EF 
    867      3862.072 DT     0101 Tx 8  FE DC BA 98 76 54 32 10 
    868      3870.571 DT     0100 Rx 8  01 23 45 67 89 AB CD EF 
    869      3872.067 DT     0101 Tx 8  FE DC BA 98 76 54 32 10 
    870      3874.961 DT     0001 Rx 8  49 01 34 56 DE AD BE EF 
    871      3877.956 DT     0001 Rx 8  28 01 34 56 DE AD BE EF 
    872      3880.502 DT     0100 Rx 8  01 23 45 67 89 AB CD EF 
    873      3882.052 DT     0101 Tx 8  FE DC BA 98 76 54 32 10 
    874      3890.486 DT     0100 Rx 8  01 23 45 67 89 AB CD EF 
    875      3892.069 DT     0101 Tx 8  FE DC BA 98 76 54 32 10 
    876      3896.958 DT     0001 Rx 8  4A 02 34 56 DE AD BE EF 
    877      3900.550 DT     0100 Rx 8  01 23 45 67 89 AB CD EF 
    878      3902.055 DT     0101 Tx 8  FE DC BA 98 76 54 32 10 
    879      3901.961 DT     0001 Rx 8  34 02 34 56 DE AD BE EF 
    880      3910.493 DT     0100 Rx 8  01 23 45 67 89 AB CD EF 
    881      3912.061 DT     0101 Tx 8  FE DC BA 98 76 54 32 10 
    882      3918.953 DT     0001 Rx 8  4B 02 34 56 DE AD BE EF 
    883      3920.535 DT     0100 Rx 8  01 23 45 67 89 AB CD EF 
    884      3922.056 DT     0101 Tx 8  FE DC BA 98 76 54 32 10 
    885      3930.519 DT     0100 Rx 8  01 23 45 67 89 AB CD EF 
    886      3932.068 DT     0101 Tx 8  FE DC BA 98 76 54 32 10 
    887      3940.549 DT     0100 Rx 8  01 23 45 67 89 AB CD EF 
    888      3940.953 DT     0001 Rx 8  4C 02 34 56 DE AD BE EF 
    889      3942.054 DT     0101 Tx 8  FE DC BA 98 76 54 32 10 
    890      3946.955 DT     0001 Rx 8  36 02 34 56 DE AD BE EF 
    891      3950.579 DT     0100 Rx 8  01 23 45 67 89 AB CD EF 
    892      3952.066 DT     0101 Tx 8  FE DC BA 98 76 54 32 10 
    893      3960.553 DT     0100 Rx 8  01 23 45 67 89 AB CD EF 
    894      3962.063 DT     0101 Tx 8  FE DC BA 98 76 54 32 10 
    895      3962.955 DT     0001 Rx 8  4D 02 34 56 DE AD BE EF 
    896      3971.132 DT     0101 Tx 8  FE DC BA 98 76 54 32 10 
    897      3970.587 DT     0100 Rx 8  01 23 45 67 89 AB CD EF 
    898      3980.543 DT     0100 Rx 8  01 23 45 67 89 AB CD EF 
    899      3982.141 DT     0101 Tx 8  FE DC BA 98 76 54 32 10 
    900      3984.819 DT     0001 Rx 8  4E 02 34 56 DE AD BE EF 
    901      3990.591 DT     0100 Rx 8  01 23 45 67 89 AB CD EF 
    902      3992.049 DT     0101 Tx 8  FE DC BA 98 76 54 32 10 
    903      4000.555 DT     0100 Rx 8  01 23 45 67 89 AB CD EF 
    904      4002.068 DT     0101 Tx 8  FE DC BA 98 76 54 32 10 
    905      4006.949 DT     0001 Rx 8  4F 02 34 56 DE AD BE EF 
    906      4010.559 DT     0100 Rx 8  01 23 45 67 89 AB CD EF 
    907      4012.054 DT     0101 Tx 8  FE DC BA 98 76 54 32 10 
    908      4020.517 DT     0100 Rx 8  01 23 45 67 89 AB CD EF 
    909      4022.053 DT     0101 Tx 8  FE DC BA 98 76 54 32 10 
    910      4028.839 DT     0001 Rx 8  50 03 34 56 DE AD BE EF 
    911      4030.491 DT     0100 Rx 8  01 23 45 67 89 AB CD EF 
    912      4032.052 DT     0101 Tx 8  FE DC BA 98 76 54 32 10 
    913      4038.835 DT     0001 Rx 8  3A 03 34 56 DE AD BE EF 
    914      4040.535 DT     0100 Rx 8  01 23 45 67 89 AB CD EF 
    915      4042.085 DT     0101 Tx 8  FE DC BA 98 76 54 32 10 
    916      4050.540 DT     0100 Rx 8  01 23 45 67 89 AB CD EF 
    917      4050.816 DT     0001 Rx 8  51 04 34 56 DE AD BE EF 
    918      4052.072 DT     0101 Tx 8  FE DC BA 98 76 54 32 10 
    919      4060.532 DT     0100 Rx 8  01 23 45 67 89 AB CD EF 
    920      4062.049 DT     0101 Tx 8  FE DC BA 98 76 54 32 10 
    921      4070.546 DT     0100 Rx 8  01 23 45 67 89 AB CD EF 
    922      4072.112 DT     0101 Tx 8  FE DC BA 98 76 54 32 10 
    923      4072.828 DT     0001 Rx 8  52 04 34 56 DE AD BE EF 
    924      4080.546 DT     0100 Rx 8  01 23 45 67 89 AB CD EF 
    925      4082.049 DT     0101 Tx 8  FE DC BA 98 76 54 32 10 
    926      4090.564 DT     0100 Rx 8  01 23 45 67 89 AB CD EF 
    927      4092.057 DT     0101 Tx 8  FE DC BA 98 76 54 32 10 
    928      4094.816 DT     0001 Rx 8  53 04 34 56 DE AD BE EF 
    929      4100.546 DT     0100 Rx 8  01 23 45 67 89 AB CD EF 
    930      4102.055 DT     0101 Tx 8  FE DC BA 98 76 54 32 10 
    931      4110.536 DT     0100 Rx 8  01 23 45 67 89 AB CD EF 
    932      4112.057 DT     0101 Tx 8  FE DC BA 98 76 54 32 10 
    933      4116.950 DT     0001 Rx 8  54 04 34 56 DE AD BE EF 
    934      4120.544 DT     0100 Rx 8  01 23 45 67 89 AB CD EF 
    935      4122.049 DT     0101 Tx 8  FE DC BA 98 76 54 32 10 
    936      4130.498 DT     0100 Rx 8  01 23 45 67 89 AB CD EF 
    937      4132.063 DT     0101 Tx 8  FE DC BA 98 76 54 32 10 
    938      4138.826 DT     0001 Rx 8  55 05 34 56 DE AD BE EF 
    939      4140.554 DT     0100 Rx 8  01 23 45 67 89 AB CD EF 
    940      4142.057 DT     0101 Tx 8  FE DC BA 98 76 54 32 10 
    941      4150.546 DT     0100 Rx 8  01 23 45 67 89 AB CD EF 
    942      4152.075 DT     0101 Tx 8  FE DC BA 98 76 54 32 10 
    943      4160.504 DT     0100 Rx 8  01 23 45 67 89 AB CD EF 
    944      4160.828 DT     0001 Rx 8  56 05 34 56 DE AD BE EF 
    945      4162.074 DT     0101 Tx 8  FE DC BA 98 76 54 32 10 
    946      4170.544 DT     0100 Rx 8  01 23 45 67 89 AB CD EF 
    947      4172.050 DT     0101 Tx 8  FE DC BA 98 76 54 32 10 
    948      4180.610 DT     0100 Rx 8  01 23 45 67 89 AB CD EF 
    949      4182.072 DT     0101 Tx 8  FE DC BA 98 76 54 32 10 
    950      4182.814 DT     0001 Rx 8  57 05 34 56 DE AD BE EF 
    951      4190.531 DT     0100 Rx 8  01 23 45 67 89 AB CD EF 
    952      4192.057 DT     0101 Tx 8  FE DC BA 98 76 54 32 10 
    953      4200.545 DT     0100 Rx 8  01 23 45 67 89 AB CD EF 
    954      4202.070 DT     0101 Tx 8  FE DC BA 98 76 54 32 10 
    955      4204.819 DT     0001 Rx 8  58 05 34 56 DE AD BE EF 
    956      4210.544 DT     0100 Rx 8  01 23 45 67 89 AB CD EF 
    957      4212.067 DT     0101 Tx 8  FE DC BA 98 76 54 32 10 
    958      4220.536 DT     0100 Rx 8  01 23 45 67 89 AB CD EF 
    959      4220.810 DT     0001 Rx 8  2C 06 34 56 DE AD BE EF 
    960      4222.053 DT     0101 Tx 8  FE DC BA 98 76 54 32 10 
    961      4226.941 DT     0001 Rx 8  59 06 34 56 DE AD BE EF 
    962      4230.535 DT     0100 Rx 8  01 23 45 67 89 AB CD EF 
    963      4232.048 DT     0101 Tx 8  FE DC BA 98 76 54 32 10 
    964      4240.535 DT     0100 Rx 8  01 23 45 67 89 AB CD EF 
    965      4242.045 DT     0101 Tx 8  FE DC BA 98 76 54 32 10 
    966      4250.499 DT     0100 Rx 8  01 23 45 67 89 AB CD EF 
    967      4252.046 DT     0101 Tx 8  FE DC BA 98 76 54 32 10 
    968      4260.570 DT     0100 Rx 8  01 23 45 67 89 AB CD EF 
    969      4262.091 DT     0101 Tx 8  FE DC BA 98 76 54 32 10 
    970      4270.488 DT     0100 Rx 8  01 23 45 67 89 AB CD EF 
    971      4272.096 DT     0101 Tx 8  FE DC BA 98 76 54 32 10 
    972      4280.546 DT     0100 Rx 8  01 23 45 67 89 AB CD EF 
    973      4282.058 DT     0101 Tx 8  FE DC BA 98 76 54 32 10 
    974      4290.530 DT     0100 Rx 8  01 23 45 67 89 AB CD EF 
    975      4292.084 DT     0101 Tx 8  FE DC BA 98 76 54 32 10 
    976      4300.576 DT     0100 Rx 8  01 23 45 67 89 AB CD EF 
    977      4302.046 DT     0101 Tx 8  FE DC BA 98 76 54 32 10 
    978      4310.558 DT     0100 Rx 8  01 23 45 67 89 AB CD EF 
    979      4312.068 DT     0101 Tx 8  FE DC BA 98 76 54 32 10 
    980      4320.542 DT     0100 Rx 8  01 23 45 67 89 AB CD EF 
    981      4322.072 DT     0101 Tx 8  FE DC BA 98 76 54 32 10 
    982      4330.538 DT     0100 Rx 8  01 23 45 67 89 AB CD EF 
    983      4332.051 DT     0101 Tx 8  FE DC BA 98 76 54 32 10 
    984      4340.484 DT     0100 Rx 8  01 23 45 67 89 AB CD EF 
    985      4342.048 DT     0101 Tx 8  FE DC BA 98 76 54 32 10 
    986      4350.508 DT     0100 Rx 8  01 23 45 67 89 AB CD EF 
    987      4352.084 DT     0101 Tx 8  FE DC BA 98 76 54 32 10 
    988      4360.508 DT     0100 Rx 8  01 23 45 67 89 AB CD EF 
    989      4362.085 DT     0101 Tx 8  FE DC BA 98 76 54 32 10 
    990      4370.554 DT     0100 Rx 8  01 23 45 67 89 AB CD EF 
    991      4372.052 DT     0101 Tx 8  FE DC BA 98 76 54 32 10 
    992      4380.497 DT     0100 Rx 8  01 23 45 67 89 AB CD EF 
    993      4382.055 DT     0101 Tx 8  FE DC BA 98 76 54 32 10 
    994      4390.501 DT     0100 Rx 8  01 23 45 67 89 AB CD EF 
    995      4392.058 DT     0101 Tx 8  FE DC BA 98 76 54 32 10 
    996      4400.550 DT     0100 Rx 8  01 23 45 67 89 AB CD EF 
    997      4402.056 DT     0101 Tx 8  FE DC BA 98 76 54 32 10 
    998      4410.486 DT     0100 Rx 8  01 23 45 67 89 AB CD EF 
    999      4412.051 DT     0101 Tx 8  FE DC BA 98 76 54 32 10 
   1000      4420.486 DT     0100 Rx 8  01 23 45 67 89 AB CD EF 
   1001      4422.056 DT     0101 Tx 8  FE DC BA 98 76 54 32 10 
   1002      4426.943 DT     0001 Rx 8  40 07 34 56 DE AD BE EF 
   1003      4430.593 DT     0100 Rx 8  01 23 45 67 89 AB CD EF 
   1004      4432.059 DT     0101 Tx 8  FE DC BA 98 76 54 32 10 
   1005      4440.504 DT     0100 Rx 8  01 23 45 67 89 AB CD EF 
   1006      4442.071 DT     0101 Tx 8  FE DC BA 98 76 54 32 10 
   1007      4450.500 DT     0100 Rx 8  01 23 45 67 89 AB CD EF 
   1008      4452.055 DT     0101 Tx 8  FE DC BA 98 76 54 32 10 
   1009      4460.562 DT     0100 Rx 8  01 23 45 67 89 AB CD EF 
   1010      4462.047 DT     0101 Tx 8  FE DC BA 98 76 54 32 10 
   1011      4470.502 DT     0100 Rx 8  01 23 45 67 89 AB CD EF 
   1012      4470.922 DT     0001 Rx 8  42 07 34 56 DE AD BE EF 
   1013      4472.051 DT     0101 Tx 8  FE DC BA 98 76 54 32 10 
   1014      4480.536 DT     0100 Rx 8  01 23 45 67 89 AB CD EF 
   1015      4482.068 DT     0101 Tx 8  FE DC BA 98 76 54 32 10 
   1016      4490.544 DT     0100 Rx 8  01 23 45 67 89 AB CD EF 
   1017      4492.050 DT     0101 Tx 8  FE DC BA 98 76 54 32 10 
   1018      4500.540 DT     0100 Rx 8  01 23 45 67 89 AB CD EF 
   1019      4500.808 DT     0001 Rx 8  5A 07 34 56 DE AD BE EF 
   1020      4502.067 DT     0101 Tx 8  FE DC BA 98 76 54 32 10 
   1021      4510.484 DT     0100 Rx 8  01 23 45 67 89 AB CD EF 
   1022      4512.081 DT     0101 Tx 8  FE DC BA 98 76 54 32 10 
   1023      4520.644 DT     0100 Rx 8  01 23 45 67 89 AB CD EF 
   1024      4522.207 DT     0101 Tx 8  FE DC BA 98 76 54 32 10 
   1025      4522.902 DT     0001 Rx 8  5B 07 34 56 DE AD BE EF 
   1026      4530.624 DT     0100 Rx 8  01 23 45 67 89 AB CD EF 
   1027      4532.043 DT     0101 Tx 8  FE DC BA 98 76 54 32 10 
   1028      4540.506 DT     0100 Rx 8  01 23 45 67 89 AB CD EF 
   1029      4542.157 DT     0101 Tx 8  FE DC BA 98 76 54 32 10 
   1030      4544.805 DT     0001 Rx 8  5C 07 34 56 DE AD BE EF 
   1031      4550.623 DT     0100 Rx 8  01 23 45 67 89 AB CD EF 
   1032      4552.043 DT     0101 Tx 8  FE DC BA 98 76 54 32 10 
   1033      4558.808 DT     0001 Rx 8  46 07 34 56 DE AD BE EF 
   1034      4560.595 DT     0100 Rx 8  01 23 45 67 89 AB CD EF 
   1035      4562.160 DT     0101 Tx 8  FE DC BA 98 76 54 32 10 
   1036      4566.800 DT     0001 Rx 8  5D 08 34 56 DE AD BE EF 
   1037      4570.592 DT     0100 Rx 8  01 23 45 67 89 AB CD EF 
   1038      4572.046 DT     0101 Tx 8  FE DC BA 98 76 54 32 10 
   1039      4580.090 DT     0100 Rx 8  01 23 45 67 89 AB CD EF 
   1040      4582.047 DT     0101 Tx 8  FE DC BA 98 76 54 32 10 
   1041      4588.936 DT     0001 Rx 8  5E 08 34 56 DE AD BE EF 
   1042      4590.472 DT     0100 Rx 8  01 23 45 67 89 AB CD EF 
   1043      4592.223 DT     0101 Tx 8  FE DC BA 98 76 54 32 10 
   1044      4600.464 DT     0100 Rx 8  01 23 45 67 89 AB CD EF 
   1045      4602.206 DT     0101 Tx 8  FE DC BA 98 76 54 32 10 
   1046      4610.712 DT     0100 Rx 8  01 23 45 67 89 AB CD EF 
   1047      4610.944 DT     0001 Rx 8  5F 09 34 56 DE AD BE EF 
   1048      4612.009 DT     0101 Tx 8  FE DC BA 98 76 54 32 10 
   1049      4620.616 DT     0100 Rx 8  01 23 45 67 89 AB CD EF 
   1050      4622.025 DT     0101 Tx 8  FE DC BA 98 76 54 32 10 
   1051      4630.516 DT     0100 Rx 8  01 23 45 67 89 AB CD EF 
   1052      4632.068 DT     0101 Tx 8  FE DC BA 98 76 54 32 10 
   1053      4632.808 DT     0001 Rx 8  60 09 34 56 DE AD BE EF 
   1054      4641.175 DT     0101 Tx 8  FE DC BA 98 76 54 32 10 
   1055      4640.762 DT     0100 Rx 8  01 23 45 67 89 AB CD EF 
   1056      4651.330 DT     0101 Tx 8  FE DC BA 98 76 54 32 10 
   1057      4650.774 DT     0100 Rx 8  01 23 45 67 89 AB CD EF 
   1058      4655.799 DT     0001 Rx 8  61 09 34 56 DE AD BE EF 
   1059      4661.282 DT     0101 Tx 8  FE DC BA 98 76 54 32 10 
   1060      4660.831 DT     0100 Rx 8  01 23 45 67 89 AB CD EF 
   1061      4672.045 DT     0101 Tx 8  FE DC BA 98 76 54 32 10 
   1062      4670.823 DT     0100 Rx 8  01 23 45 67 89 AB CD EF 
   1063      4678.805 DT     0001 Rx 8  62 09 34 56 DE AD BE EF 
   1064      4680.503 DT     0100 Rx 8  01 23 45 67 89 AB CD EF 
   1065      4682.018 DT     0101 Tx 8  FE DC BA 98 76 54 32 10 
   1066      4691.213 DT     0101 Tx 8  FE DC BA 98 76 54 32 10 
   1067      4690.785 DT     0100 Rx 8  01 23 45 67 89 AB CD EF 
   1068      4701.358 DT     0101 Tx 8  FE DC BA 98 76 54 32 10 
   1069      4700.589 DT     0100 Rx 8  01 23 45 67 89 AB CD EF 
   1070      4710.444 DT     0100 Rx 8  01 23 45 67 89 AB CD EF 
   1071      4712.009 DT     0101 Tx 8  FE DC BA 98 76 54 32 10 
   1072      4720.706 DT     0100 Rx 8  01 23 45 67 89 AB CD EF 
   1073      4722.171 DT     0101 Tx 8  FE DC BA 98 76 54 32 10 
   1074      4730.475 DT     0100 Rx 8  01 23 45 67 89 AB CD EF 
   1075      4732.110 DT     0101 Tx 8  FE DC BA 98 76 54 32 10 
   1076      4740.709 DT     0100 Rx 8  01 23 45 67 89 AB CD EF 
   1077      4742.050 DT     0101 Tx 8  FE DC BA 98 76 54 32 10 
   1078      4750.445 DT     0100 Rx 8  01 23 45 67 89 AB CD EF 
   1079      4752.340 DT     0101 Tx 8  FE DC BA 98 76 54 32 10 
   1080      4760.467 DT     0100 Rx 8  01 23 45 67 89 AB CD EF 
   1081      4762.009 DT     0101 Tx 8  FE DC BA 98 76 54 32 10 
   1082      4770.539 DT     0100 Rx 8  01 23 45 67 89 AB CD EF 
   1083      4772.067 DT     0101 Tx 8  FE DC BA 98 76 54 32 10 
   1084      4780.507 DT     0100 Rx 8  01 23 45 67 89 AB CD EF 
   1085      4782.092 DT     0101 Tx 8  FE DC BA 98 76 54 32 10 
   1086      4790.517 DT     0100 Rx 8  01 23 45 67 89 AB CD EF 
   1087      4792.112 DT     0101 Tx 8  FE DC BA 98 76 54 32 10 
   1088      4801.317 DT     0101 Tx 8  FE DC BA 98 76 54 32 10 
   1089      4800.815 DT     0100 Rx 8  01 23 45 67 89 AB CD EF 
   1090      4809.888 DT     0001 Rx 8  25 00 34 56 DE AD BE EF 
   1091      4810.510 DT     0100 Rx 8  01 23 45 67 89 AB CD EF 
   1092      4811.213 DT     0101 Tx 8  FE DC BA 98 76 54 32 10 
   1093      4820.506 DT     0100 Rx 8  01 23 45 67 89 AB CD EF 
   1094      4822.067 DT     0101 Tx 8  FE DC BA 98 76 54 32 10 
   1095      4831.293 DT     0101 Tx 8  FE DC BA 98 76 54 32 10 
   1096      4830.458 DT     0100 Rx 8  01 23 45 67 89 AB CD EF 
   1097      4840.468 DT     0100 Rx 8  01 23 45 67 89 AB CD EF 
   1098      4842.299 DT     0101 Tx 8  FE DC BA 98 76 54 32 10 
   1099      4850.446 DT     0100 Rx 8  01 23 45 67 89 AB CD EF 
   1100      4852.053 DT     0101 Tx 8  FE DC BA 98 76 54 32 10 
   1101      4860.510 DT     0100 Rx 8  01 23 45 67 89 AB CD EF 
   1102      4862.024 DT     0101 Tx 8  FE DC BA 98 76 54 32 10 
   1103      4870.506 DT     0100 Rx 8  01 23 45 67 89 AB CD EF 
   1104      4872.046 DT     0101 Tx 8  FE DC BA 98 76 54 32 10 
   1105      4878.888 DT     0001 Rx 8  28 00 34 56 DE AD BE EF 
   1106      4881.303 DT     0101 Tx 8  FE DC BA 98 76 54 32 10 
   1107      4880.700 DT     0100 Rx 8  01 23 45 67 89 AB CD EF 
   1108      4891.341 DT     0101 Tx 8  FE DC BA 98 76 54 32 10 
   1109      4890.746 DT     0100 Rx 8  01 23 45 67 89 AB CD EF 
   1110      4901.374 DT     0101 Tx 8  FE DC BA 98 76 54 32 10 
   1111      4900.754 DT     0100 Rx 8  01 23 45 67 89 AB CD EF 
   1112      4911.195 DT     0101 Tx 8  FE DC BA 98 76 54 32 10 
   1113      4910.724 DT     0100 Rx 8  01 23 45 67 89 AB CD EF 
   1114      4921.166 DT     0101 Tx 8  FE DC BA 98 76 54 32 10 
   1115      4920.630 DT     0100 Rx 8  01 23 45 67 89 AB CD EF 
   1116      4930.436 DT     0100 Rx 8  01 23 45 67 89 AB CD EF 
   1117      4932.343 DT     0101 Tx 8  FE DC BA 98 76 54 32 10 
   1118      4941.277 DT     0101 Tx 8  FE DC BA 98 76 54 32 10 
   1119      4940.786 DT     0100 Rx 8  01 23 45 67 89 AB CD EF 
   1120      4951.166 DT     0101 Tx 8  FE DC BA 98 76 54 32 10 
   1121      4950.555 DT     0100 Rx 8  01 23 45 67 89 AB CD EF 
   1122      4955.880 DT     0001 Rx 8  63 01 34 56 DE AD BE EF 
   1123      4960.740 DT     0100 Rx 8  01 23 45 67 89 AB CD EF 
   1124      4962.018 DT     0101 Tx 8  FE DC BA 98 76 54 32 10 
   1125      4970.463 DT     0100 Rx 8  01 23 45 67 89 AB CD EF 
   1126      4972.028 DT     0101 Tx 8  FE DC BA 98 76 54 32 10 
   1127      4978.865 DT     0001 Rx 8  64 01 34 56 DE AD BE EF 
   1128      4980.515 DT     0100 Rx 8  01 23 45 67 89 AB CD EF 
   1129      4982.005 DT     0101 Tx 8  FE DC BA 98 76 54 32 10 
   1130      4990.459 DT     0100 Rx 8  01 23 45 67 89 AB CD EF 
   1131      4992.041 DT     0101 Tx 8  FE DC BA 98 76 54 32 10 
   1132      5001.330 DT     0101 Tx 8  FE DC BA 98 76 54 32 10 
   1133      5000.785 DT     0100 Rx 8  01 23 45 67 89 AB CD EF 
   1134      5007.875 DT     0001 Rx 8  4F 02 34 56 DE AD BE EF 
   1135      5010.443 DT     0100 Rx 8  01 23 45 67 89 AB CD EF 
   1136      5012.026 DT     0101 Tx 8  FE DC BA 98 76 54 32 10 
   1137      5021.182 DT     0101 Tx 8  FE DC BA 98 76 54 32 10 
   1138      5020.747 DT     0100 Rx 8  01 23 45 67 89 AB CD EF 
   1139      5031.327 DT     0101 Tx 8  FE DC BA 98 76 54 32 10 
   1140      5030.755 DT     0100 Rx 8  01 23 45 67 89 AB CD EF 
   1141      5039.871 DT     0001 Rx 8  3A 02 34 56 DE AD BE EF 
   1142      5041.333 DT     0101 Tx 8  FE DC BA 98 76 54 32 10 
   1143      5040.443 DT     0100 Rx 8  01 23 45 67 89 AB CD EF 
   1144      5051.194 DT     0101 Tx 8  FE DC BA 98 76 54 32 10 
   1145      5050.734 DT     0100 Rx 8  01 23 45 67 89 AB CD EF 
   1146      5060.428 DT     0100 Rx 8  01 23 45 67 89 AB CD EF 
   1147      5062.002 DT     0101 Tx 8  FE DC BA 98 76 54 32 10 
   1148      5070.760 DT     0100 Rx 8  01 23 45 67 89 AB CD EF 
   1149      5072.042 DT     0101 Tx 8  FE DC BA 98 76 54 32 10 
   1150      5081.155 DT     0101 Tx 8  FE DC BA 98 76 54 32 10 
   1151      5080.442 DT     0100 Rx 8  01 23 45 67 89 AB CD EF 
   1152      5090.436 DT     0100 Rx 8  01 23 45 67 89 AB CD EF 
   1153      5092.107 DT     0101 Tx 8  FE DC BA 98 76 54 32 10 
   1154      5100.454 DT     0100 Rx 8  01 23 45 67 89 AB CD EF 
   1155      5102.010 DT     0101 Tx 8  FE DC BA 98 76 54 32 10 
   1156      5110.722 DT     0100 Rx 8  01 23 45 67 89 AB CD EF 
   1157      5112.013 DT     0101 Tx 8  FE DC BA 98 76 54 32 10 
   1158      5118.864 DT     0001 Rx 8  54 03 34 56 DE AD BE EF 
   1159      5121.180 DT     0101 Tx 8  FE DC BA 98 76 54 32 10 
   1160      5120.752 DT     0100 Rx 8  01 23 45 67 89 AB CD EF 
   1161      5130.768 DT     0100 Rx 8  01 23 45 67 89 AB CD EF 
   1162      5132.023 DT     0101 Tx 8  FE DC BA 98 76 54 32 10 
   1163      5141.313 DT     0101 Tx 8  FE DC BA 98 76 54 32 10 
   1164      5140.806 DT     0100 Rx 8  01 23 45 67 89 AB CD EF 
   1165      5151.305 DT     0101 Tx 8  FE DC BA 98 76 54 32 10 
   1166      5150.626 DT     0100 Rx 8  01 23 45 67 89 AB CD EF 
   1167      5161.188 DT     0101 Tx 8  FE DC BA 98 76 54 32 10 
   1168      5160.754 DT     0100 Rx 8  01 23 45 67 89 AB CD EF 
   1169      5170.632 DT     0100 Rx 8  01 23 45 67 89 AB CD EF 
   1170      5172.010 DT     0101 Tx 8  FE DC BA 98 76 54 32 10 
   1171      5180.454 DT     0100 Rx 8  01 23 45 67 89 AB CD EF 
   1172      5182.020 DT     0101 Tx 8  FE DC BA 98 76 54 32 10 
   1173      5191.216 DT     0101 Tx 8  FE DC BA 98 76 54 32 10 
   1174      5190.754 DT     0100 Rx 8  01 23 45 67 89 AB CD EF 
   1175      5200.576 DT     0100 Rx 8  01 23 45 67 89 AB CD EF 
   1176      5202.129 DT     0101 Tx 8  FE DC BA 98 76 54 32 10 
   1177      5206.741 DT     0001 Rx 8  58 03 34 56 DE AD BE EF 
   1178      5210.757 DT     0100 Rx 8  01 23 45 67 89 AB CD EF 
   1179      5212.010 DT     0101 Tx 8  FE DC BA 98 76 54 32 10 
   1180      5220.438 DT     0100 Rx 8  01 23 45 67 89 AB CD EF 
   1181      5221.338 DT     0101 Tx 8  FE DC BA 98 76 54 32 10 
   1182      5227.867 DT     0001 Rx 8  59 04 34 56 DE AD BE EF 
   1183      5230.465 DT     0100 Rx 8  01 23 45 67 89 AB CD EF 
   1184      5232.026 DT     0101 Tx 8  FE DC BA 98 76 54 32 10 
   1185      5240.495 DT     0100 Rx 8  01 23 45 67 89 AB CD EF 
   1186      5242.008 DT     0101 Tx 8  FE DC BA 98 76 54 32 10 
   1187      5250.561 DT     0100 Rx 8  01 23 45 67 89 AB CD EF 
   1188      5252.120 DT     0101 Tx 8  FE DC BA 98 76 54 32 10 
   1189      5252.775 DT     0001 Rx 8  65 04 34 56 DE AD BE EF 
   1190      5260.433 DT     0100 Rx 8  01 23 45 67 89 AB CD EF 
   1191      5262.081 DT     0101 Tx 8  FE DC BA 98 76 54 32 10 
   1192      5270.522 DT     0100 Rx 8  01 23 45 67 89 AB CD EF 
   1193      5271.353 DT     0101 Tx 8  FE DC BA 98 76 54 32 10 
   1194      5275.858 DT     0001 Rx 8  66 04 34 56 DE AD BE EF 
   1195      5281.308 DT     0101 Tx 8  FE DC BA 98 76 54 32 10 
   1196      5280.836 DT     0100 Rx 8  01 23 45 67 89 AB CD EF 
   1197      5290.488 DT     0100 Rx 8  01 23 45 67 89 AB CD EF 
   1198      5292.006 DT     0101 Tx 8  FE DC BA 98 76 54 32 10 
   1199      5298.858 DT     0001 Rx 8  67 04 34 56 DE AD BE EF 
   1200      5301.354 DT     0101 Tx 8  FE DC BA 98 76 54 32 10 
   1201      5300.752 DT     0100 Rx 8  01 23 45 67 89 AB CD EF 
   1202      5310.428 DT     0100 Rx 8  01 23 45 67 89 AB CD EF 
   1203      5312.016 DT     0101 Tx 8  FE DC BA 98 76 54 32 10 
   1204      5320.674 DT     0100 Rx 8  01 23 45 67 89 AB CD EF 
   1205      5320.904 DT     0001 Rx 8  68 05 34 56 DE AD BE EF 
   1206      5322.017 DT     0101 Tx 8  FE DC BA 98 76 54 32 10 
   1207      5331.361 DT     0101 Tx 8  FE DC BA 98 76 54 32 10 
   1208      5330.542 DT     0100 Rx 8  01 23 45 67 89 AB CD EF 
   1209      5340.714 DT     0100 Rx 8  01 23 45 67 89 AB CD EF 
   1210      5342.356 DT     0101 Tx 8  FE DC BA 98 76 54 32 10 
   1211      5344.866 DT     0001 Rx 8  69 05 34 56 DE AD BE EF 
   1212      5350.728 DT     0100 Rx 8  01 23 45 67 89 AB CD EF 
   1213      5352.027 DT     0101 Tx 8  FE DC BA 98 76 54 32 10 
   1214      5360.649 DT     0100 Rx 8  01 23 45 67 89 AB CD EF 
   1215      5362.018 DT     0101 Tx 8  FE DC BA 98 76 54 32 10 
   1216      5366.729 DT     0001 Rx 8  6A 06 34 56 DE AD BE EF 
   1217      5371.328 DT     0101 Tx 8  FE DC BA 98 76 54 32 10 
   1218      5370.785 DT     0100 Rx 8  01 23 45 67 89 AB CD EF 
   1219      5380.747 DT     0100 Rx 8  01 23 45 67 89 AB CD EF 
   1220      5382.035 DT     0101 Tx 8  FE DC BA 98 76 54 32 10 
   1221      5388.743 DT     0001 Rx 8  6B 06 34 56 DE AD BE EF 
   1222      5390.553 DT     0100 Rx 8  01 23 45 67 89 AB CD EF 
   1223      5392.176 DT     0101 Tx 8  FE DC BA 98 76 54 32 10 
   1224      5401.224 DT     0101 Tx 8  FE DC BA 98 76 54 32 10 
   1225      5400.621 DT     0100 Rx 8  01 23 45 67 89 AB CD EF 
   1226      5411.302 DT     0101 Tx 8  FE DC BA 98 76 54 32 10 
   1227      5410.815 DT     0100 Rx 8  01 23 45 67 89 AB CD EF 
   1228      5421.126 DT     0101 Tx 8  FE DC BA 98 76 54 32 10 
   1229      5420.605 DT     0100 Rx 8  01 23 45 67 89 AB CD EF 
   1230      5430.443 DT     0100 Rx 8  01 23 45 67 89 AB CD EF 
   1231      5432.024 DT     0101 Tx 8  FE DC BA 98 76 54 32 10 
   1232      5440.767 DT     0100 Rx 8  01 23 45 67 89 AB CD EF 
   1233      5442.059 DT     0101 Tx 8  FE DC BA 98 76 54 32 10 
   1234      5450.503 DT     0100 Rx 8  01 23 45 67 89 AB CD EF 
   1235      5452.324 DT     0101 Tx 8  FE DC BA 98 76 54 32 10 
   1236      5460.767 DT     0100 Rx 8  01 23 45 67 89 AB CD EF 
   1237      5462.011 DT     0101 Tx 8  FE DC BA 98 76 54 32 10 
   1238      5471.273 DT     0101 Tx 8  FE DC BA 98 76 54 32 10 
   1239      5470.799 DT     0100 Rx 8  01 23 45 67 89 AB CD EF 
   1240      5480.567 DT     0100 Rx 8  01 23 45 67 89 AB CD EF 
   1241      5482.011 DT     0101 Tx 8  FE DC BA 98 76 54 32 10 
   1242      5490.451 DT     0100 Rx 8  01 23 45 67 89 AB CD EF 
   1243      5492.241 DT     0101 Tx 8  FE DC BA 98 76 54 32 10 
   1244      5501.275 DT     0101 Tx 8  FE DC BA 98 76 54 32 10 
   1245      5500.735 DT     0100 Rx 8  01 23 45 67 89 AB CD EF 
   1246      5510.599 DT     0100 Rx 8  01 23 45 67 89 AB CD EF 
   1247      5512.014 DT     0101 Tx 8  FE DC BA 98 76 54 32 10 
   1248      5520.435 DT     0100 Rx 8  01 23 45 67 89 AB CD EF 
   1249      5522.044 DT     0101 Tx 8  FE DC BA 98 76 54 32 10 
   1250      5530.466 DT     0100 Rx 8  01 23 45 67 89 AB CD EF 
   1251      5532.016 DT     0101 Tx 8  FE DC BA 98 76 54 32 10 
   1252      5540.468 DT     0100 Rx 8  01 23 45 67 89 AB CD EF 
   1253      5542.038 DT     0101 Tx 8  FE DC BA 98 76 54 32 10 
   1254      5550.434 DT     0100 Rx 8  01 23 45 67 89 AB CD EF 
   1255      5552.020 DT     0101 Tx 8  FE DC BA 98 76 54 32 10 
   1256      5560.425 DT     0100 Rx 8  01 23 45 67 89 AB CD EF 
   1257      5560.735 DT     0001 Rx 8  46 07 34 56 DE AD BE EF 
   1258      5562.033 DT     0101 Tx 8  FE DC BA 98 76 54 32 10 
   1259      5570.455 DT     0100 Rx 8  01 23 45 67 89 AB CD EF 
   1260      5572.028 DT     0101 Tx 8  FE DC BA 98 76 54 32 10 
   1261      5580.437 DT     0100 Rx 8  01 23 45 67 89 AB CD EF 
   1262      5582.007 DT     0101 Tx 8  FE DC BA 98 76 54 32 10 
   1263      5590.439 DT     0100 Rx 8  01 23 45 67 89 AB CD EF 
   1264      5590.847 DT     0001 Rx 8  5E 07 34 56 DE AD BE EF 
   1265      5592.011 DT     0101 Tx 8  FE DC BA 98 76 54 32 10 
   1266      5600.427 DT     0100 Rx 8  01 23 45 67 89 AB CD EF 
   1267      5602.047 DT     0101 Tx 8  FE DC BA 98 76 54 32 10 
   1268      5610.421 DT     0100 Rx 8  01 23 45 67 89 AB CD EF 
   1269      5612.055 DT     0101 Tx 8  FE DC BA 98 76 54 32 10 
   1270      5620.467 DT     0100 Rx 8  01 23 45 67 89 AB CD EF 
   1271      5622.019 DT     0101 Tx 8  FE DC BA 98 76 54 32 10 
   1272      5630.477 DT     0100 Rx 8  01 23 45 67 89 AB CD EF 
   1273      5632.030 DT     0101 Tx 8  FE DC BA 98 76 54 32 10 
   1274      5640.427 DT     0100 Rx 8  01 23 45 67 89 AB CD EF 
   1275      5642.030 DT     0101 Tx 8  FE DC BA 98 76 54 32 10 
   1276      5650.451 DT     0100 Rx 8  01 23 45 67 89 AB CD EF 
   1277      5652.027 DT     0101 Tx 8  FE DC BA 98 76 54 32 10 
   1278      5660.495 DT     0100 Rx 8  01 23 45 67 89 AB CD EF 
   1279      5662.017 DT     0101 Tx 8  FE DC BA 98 76 54 32 10 
   1280      5664.731 DT     0001 Rx 8  6C 07 34 56 DE AD BE EF 
   1281      5670.450 DT     0100 Rx 8  01 23 45 67 89 AB CD EF 
   1282      5672.056 DT     0101 Tx 8  FE DC BA 98 76 54 32 10 
   1283      5680.470 DT     0100 Rx 8  01 23 45 67 89 AB CD EF 
   1284      5680.745 DT     0001 Rx 8  62 07 34 56 DE AD BE EF 
   1285      5682.046 DT     0101 Tx 8  FE DC BA 98 76 54 32 10 
   1286      5686.726 DT     0001 Rx 8  6D 07 34 56 DE AD BE EF 
   1287      5690.502 DT     0100 Rx 8  01 23 45 67 89 AB CD EF 
   1288      5692.016 DT     0101 Tx 8  FE DC BA 98 76 54 32 10 
   1289      5700.420 DT     0100 Rx 8  01 23 45 67 89 AB CD EF 
   1290      5702.021 DT     0101 Tx 8  FE DC BA 98 76 54 32 10 
   1291      5708.792 DT     0001 Rx 8  6E 07 34 56 DE AD BE EF 
   1292      5710.558 DT     0100 Rx 8  01 23 45 67 89 AB CD EF 
   1293      5712.059 DT     0101 Tx 8  FE DC BA 98 76 54 32 10 
   1294      5720.508 DT     0100 Rx 8  01 23 45 67 89 AB CD EF 
   1295      5722.052 DT     0101 Tx 8  FE DC BA 98 76 54 32 10 
   1296      5730.524 DT     0100 Rx 8  01 23 45 67 89 AB CD EF 
   1297      5730.922 DT     0001 Rx 8  6F 08 34 56 DE AD BE EF 
   1298      5732.017 DT     0101 Tx 8  FE DC BA 98 76 54 32 10 
   1299      5740.562 DT     0100 Rx 8  01 23 45 67 89 AB CD EF 
   1300      5742.066 DT     0101 Tx 8  FE DC BA 98 76 54 32 10 
   1301      5750.490 DT     0100 Rx 8  01 23 45 67 89 AB CD EF 
   1302      5752.009 DT     0101 Tx 8  FE DC BA 98 76 54 32 10 
   1303      5752.788 DT     0001 Rx 8  70 08 34 56 DE AD BE EF 
   1304      5760.530 DT     0100 Rx 8  01 23 45 67 89 AB CD EF 
   1305      5762.040 DT     0101 Tx 8  FE DC BA 98 76 54 32 10 
   1306      5770.500 DT     0100 Rx 8  01 23 45 67 89 AB CD EF 
   1307      5772.011 DT     0101 Tx 8  FE DC BA 98 76 54 32 10 
   1308      5774.908 DT     0001 Rx 8  71 08 34 56 DE AD BE EF 
   1309      5780.570 DT     0100 Rx 8  01 23 45 67 89 AB CD EF 
   1310      5782.016 DT     0101 Tx 8  FE DC BA 98 76 54 32 10 
   1311      5790.482 DT     0100 Rx 8  01 23 45 67 89 AB CD EF 
   1312      5792.043 DT     0101 Tx 8  FE DC BA 98 76 54 32 10 
   1313      5795.901 DT     0001 Rx 8  72 08 34 56 DE AD BE EF 
   1314      5800.525 DT     0100 Rx 8  01 23 45 67 89 AB CD EF 
   1315      5802.018 DT     0101 Tx 8  FE DC BA 98 76 54 32 10 
   1316      5810.521 DT     0100 Rx 8  01 23 45 67 89 AB CD EF 
   1317      5812.033 DT     0101 Tx 8  FE DC BA 98 76 54 32 10 
   1318      5818.781 DT     0001 Rx 8  73 09 34 56 DE AD BE EF 
   1319      5820.479 DT     0100 Rx 8  01 23 45 67 89 AB CD EF 
   1320      5822.053 DT     0101 Tx 8  FE DC BA 98 76 54 32 10 
   1321      5830.487 DT     0100 Rx 8  01 23 45 67 89 AB CD EF 
   1322      5832.043 DT     0101 Tx 8  FE DC BA 98 76 54 32 10 
   1323      5840.481 DT     0100 Rx 8  01 23 45 67 89 AB CD EF 
   1324      5841.017 DT     0001 Rx 8  74 09 34 56 DE AD BE EF 
   1325      5842.012 DT     0101 Tx 8  FE DC BA 98 76 54 32 10 
   1326      5850.491 DT     0100 Rx 8  01 23 45 67 89 AB CD EF 
   1327      5852.028 DT     0101 Tx 8  FE DC BA 98 76 54 32 10 
   1328      5860.516 DT     0100 Rx 8  01 23 45 67 89 AB CD EF 
   1329      5862.031 DT     0101 Tx 8  FE DC BA 98 76 54 32 10 
   1330      5863.018 DT     0001 Rx 8  75 09 34 56 DE AD BE EF 
   1331      5870.570 DT     0100 Rx 8  01 23 45 67 89 AB CD EF 
   1332      5872.048 DT     0101 Tx 8  FE DC BA 98 76 54 32 10 
   1333      5880.503 DT     0100 Rx 8  01 23 45 67 89 AB CD EF 
   1334      5882.036 DT     0101 Tx 8  FE DC BA 98 76 54 32 10 
   1335      5881.021 DT     0001 Rx 8  28 00 34 56 DE AD BE EF 
   1336      5887.023 DT     0001 Rx 8  76 00 34 56 DE AD BE EF 
   1337      5890.497 DT     0100 Rx 8  01 23 45 67 89 AB CD EF 
   1338      5892.013 DT     0101 Tx 8  FE DC BA 98 76 54 32 10 
   1339      5900.493 DT     0100 Rx 8  01 23 45 67 89 AB CD EF 
   1340      5902.016 DT     0101 Tx 8  FE DC BA 98 76 54 32 10 
   1341      5909.019 DT     0001 Rx 8  77 00 34 56 DE AD BE EF 
   1342      5910.530 DT     0100 Rx 8  01 23 45 67 89 AB CD EF 
   1343      5912.040 DT     0101 Tx 8  FE DC BA 98 76 54 32 10 
   1344      5920.511 DT     0100 Rx 8  01 23 45 67 89 AB CD EF 
   1345      5922.013 DT     0101 Tx 8  FE DC BA 98 76 54 32 10 
   1346      5930.485 DT     0100 Rx 8  01 23 45 67 89 AB CD EF 
   1347      5930.901 DT     0001 Rx 8  78 09 34 56 DE AD BE EF 
   1348      5932.040 DT     0101 Tx 8  FE DC BA 98 76 54 32 10 
   1349      5940.509 DT     0100 Rx 8  01 23 45 67 89 AB CD EF 
   1350      5942.017 DT     0101 Tx 8  FE DC BA 98 76 54 32 10 
   1351      5950.501 DT     0100 Rx 8  01 23 45 67 89 AB CD EF 
   1352      5952.041 DT     0101 Tx 8  FE DC BA 98 76 54 32 10 
   1353      5952.889 DT     0001 Rx 8  79 09 34 56 DE AD BE EF 
   1354      5960.491 DT     0100 Rx 8  01 23 45 67 89 AB CD EF 
   1355      5962.053 DT     0101 Tx 8  FE DC BA 98 76 54 32 10 
   1356      5970.593 DT     0100 Rx 8  01 23 45 67 89 AB CD EF 
   1357      5972.014 DT     0101 Tx 8  FE DC BA 98 76 54 32 10 
   1358      5975.019 DT     0001 Rx 8  7A 09 34 56 DE AD BE EF 
   1359      5979.885 DT     0001 Rx 8  64 01 34 56 DE AD BE EF 
   1360      5980.501 DT     0100 Rx 8  01 23 45 67 89 AB CD EF 
   1361      5982.015 DT     0101 Tx 8  FE DC BA 98 76 54 32 10 
   1362      5990.505 DT     0100 Rx 8  01 23 45 67 89 AB CD EF 
   1363      5992.024 DT     0101 Tx 8  FE DC BA 98 76 54 32 10 
   1364      5996.894 DT     0001 Rx 8  7B 09 34 56 DE AD BE EF 
   1365      6000.498 DT     0100 Rx 8  01 23 45 67 89 AB CD EF 
   1366      6002.016 DT     0101 Tx 8  FE DC BA 98 76 54 32 10 
   1367      6010.500 DT     0100 Rx 8  01 23 45 67 89 AB CD EF 
   1368      6012.029 DT     0101 Tx 8  FE DC BA 98 76 54 32 10 
   1369      6018.900 DT     0001 Rx 8  7C 09 34 56 DE AD BE EF 
   1370      6020.566 DT     0100 Rx 8  01 23 45 67 89 AB CD EF 
   1371      6022.015 DT     0101 Tx 8  FE DC BA 98 76 54 32 10 
   1372      6030.502 DT     0100 Rx 8  01 23 45 67 89 AB CD EF 
   1373      6032.014 DT     0101 Tx 8  FE DC BA 98 76 54 32 10 
   1374      6040.511 DT     0100 Rx 8  01 23 45 67 89 AB CD EF 
   1375      6040.895 DT     0001 Rx 8  3A 02 34 56 DE AD BE EF 
   1376      6042.045 DT     0101 Tx 8  FE DC BA 98 76 54 32 10 
   1377      6050.515 DT     0100 Rx 8  01 23 45 67 89 AB CD EF 
   1378      6052.018 DT     0101 Tx 8  FE DC BA 98 76 54 32 10 
   1379      6060.493 DT     0100 Rx 8  01 23 45 67 89 AB CD EF 
   1380      6062.017 DT     0101 Tx 8  FE DC BA 98 76 54 32 10 
   1381      6070.490 DT     0100 Rx 8  01 23 45 67 89 AB CD EF 
   1382      6072.033 DT     0101 Tx 8  FE DC BA 98 76 54 32 10 
   1383      6080.486 DT     0100 Rx 8  01 23 45 67 89 AB CD EF 
   1384      6082.080 DT     0101 Tx 8  FE DC BA 98 76 54 32 10 
   1385      6090.490 DT     0100 Rx 8  01 23 45 67 89 AB CD EF 
   1386      6092.052 DT     0101 Tx 8  FE DC BA 98 76 54 32 10 
   1387      6100.500 DT     0100 Rx 8  01 23 45 67 89 AB CD EF 
   1388      6102.015 DT     0101 Tx 8  FE DC BA 98 76 54 32 10 
   1389      6110.484 DT     0100 Rx 8  01 23 45 67 89 AB CD EF 
   1390      6112.030 DT     0101 Tx 8  FE DC BA 98 76 54 32 10 
   1391      6120.500 DT     0100 Rx 8  01 23 45 67 89 AB CD EF 
   1392      6122.011 DT     0101 Tx 8  FE DC BA 98 76 54 32 10 
   1393      6130.484 DT     0100 Rx 8  01 23 45 67 89 AB CD EF 
   1394      6132.026 DT     0101 Tx 8  FE DC BA 98 76 54 32 10 
   1395      6140.512 DT     0100 Rx 8  01 23 45 67 89 AB CD EF 
   1396      6142.012 DT     0101 Tx 8  FE DC BA 98 76 54 32 10 
   1397      6150.536 DT     0100 Rx 8  01 23 45 67 89 AB CD EF 
   1398      6152.034 DT     0101 Tx 8  FE DC BA 98 76 54 32 10 
   1399      6160.512 DT     0100 Rx 8  01 23 45 67 89 AB CD EF 
   1400      6162.013 DT     0101 Tx 8  FE DC BA 98 76 54 32 10 
   1401      6170.524 DT     0100 Rx 8  01 23 45 67 89 AB CD EF 
   1402      6172.064 DT     0101 Tx 8  FE DC BA 98 76 54 32 10 
   1403      6180.562 DT     0100 Rx 8  01 23 45 67 89 AB CD EF 
   1404      6182.039 DT     0101 Tx 8  FE DC BA 98 76 54 32 10 
   1405      6190.498 DT     0100 Rx 8  01 23 45 67 89 AB CD EF 
   1406      6192.036 DT     0101 Tx 8  FE DC BA 98 76 54 32 10 
   1407      6200.523 DT     0100 Rx 8  01 23 45 67 89 AB CD EF 
   1408      6202.054 DT     0101 Tx 8  FE DC BA 98 76 54 32 10 
   1409      6209.005 DT     0001 Rx 8  58 02 34 56 DE AD BE EF 
   1410      6210.485 DT     0100 Rx 8  01 23 45 67 89 AB CD EF 
   1411      6212.014 DT     0101 Tx 8  FE DC BA 98 76 54 32 10 
   1412      6220.517 DT     0100 Rx 8  01 23 45 67 89 AB CD EF 
   1413      6222.035 DT     0101 Tx 8  FE DC BA 98 76 54 32 10 
   1414      6230.487 DT     0100 Rx 8  01 23 45 67 89 AB CD EF 
   1415      6232.019 DT     0101 Tx 8  FE DC BA 98 76 54 32 10 
   1416      6240.483 DT     0100 Rx 8  01 23 45 67 89 AB CD EF 
   1417      6242.044 DT     0101 Tx 8  FE DC BA 98 76 54 32 10 
   1418      6250.487 DT     0100 Rx 8  01 23 45 67 89 AB CD EF 
   1419      6252.009 DT     0101 Tx 8  FE DC BA 98 76 54 32 10 
   1420      6260.511 DT     0100 Rx 8  01 23 45 67 89 AB CD EF 
   1421      6262.017 DT     0101 Tx 8  FE DC BA 98 76 54 32 10 
   1422      6270.485 DT     0100 Rx 8  01 23 45 67 89 AB CD EF 
   1423      6272.016 DT     0101 Tx 8  FE DC BA 98 76 54 32 10 
   1424      6280.509 DT     0100 Rx 8  01 23 45 67 89 AB CD EF 
   1425      6282.035 DT     0101 Tx 8  FE DC BA 98 76 54 32 10 
   1426      6290.483 DT     0100 Rx 8  01 23 45 67 89 AB CD EF 
   1427      6292.016 DT     0101 Tx 8  FE DC BA 98 76 54 32 10 
   1428      6293.001 DT     0001 Rx 8  7D 03 34 56 DE AD BE EF 
   1429      6300.006 DT     0001 Rx 8  67 03 34 56 DE AD BE EF 
   1430      6300.502 DT     0100 Rx 8  01 23 45 67 89 AB CD EF 
   1431      6302.016 DT     0101 Tx 8  FE DC BA 98 76 54 32 10 
   1432      6310.502 DT     0100 Rx 8  01 23 45 67 89 AB CD EF 
   1433      6312.037 DT     0101 Tx 8  FE DC BA 98 76 54 32 10 
   1434      6315.004 DT     0001 Rx 8  7E 04 34 56 DE AD BE EF 
   1435      6320.511 DT     0100 Rx 8  01 23 45 67 89 AB CD EF 
   1436      6322.017 DT     0101 Tx 8  FE DC BA 98 76 54 32 10 
   1437      6330.481 DT     0100 Rx 8  01 23 45 67 89 AB CD EF 
   1438      6332.014 DT     0101 Tx 8  FE DC BA 98 76 54 32 10 
   1439      6337.001 DT     0001 Rx 8  7F 04 34 56 DE AD BE EF 
   1440      6340.521 DT     0100 Rx 8  01 23 45 67 89 AB CD EF 
   1441      6342.015 DT     0101 Tx 8  FE DC BA 98 76 54 32 10 
   1442      6347.006 DT     0001 Rx 8  69 05 34 56 DE AD BE EF 
   1443      6350.478 DT     0100 Rx 8  01 23 45 67 89 AB CD EF 
   1444      6352.033 DT     0101 Tx 8  FE DC BA 98 76 54 32 10 
   1445      6358.883 DT     0001 Rx 8  80 05 34 56 DE AD BE EF 
   1446      6360.517 DT     0100 Rx 8  01 23 45 67 89 AB CD EF 
   1447      6362.036 DT     0101 Tx 8  FE DC BA 98 76 54 32 10 
   1448      6370.551 DT     0100 Rx 8  01 23 45 67 89 AB CD EF 
   1449      6372.068 DT     0101 Tx 8  FE DC BA 98 76 54 32 10 
   1450      6380.558 DT     0100 Rx 8  01 23 45 67 89 AB CD EF 
   1451      6382.037 DT     0101 Tx 8  FE DC BA 98 76 54 32 10 
   1452      6390.510 DT     0100 Rx 8  01 23 45 67 89 AB CD EF 
   1453      6390.870 DT     0001 Rx 8  6B 06 34 56 DE AD BE EF 
   1454      6392.040 DT     0101 Tx 8  FE DC BA 98 76 54 32 10 
   1455      6400.530 DT     0100 Rx 8  01 23 45 67 89 AB CD EF 
   1456      6402.016 DT     0101 Tx 8  FE DC BA 98 76 54 32 10 
   1457      6410.522 DT     0100 Rx 8  01 23 45 67 89 AB CD EF 
   1458      6412.057 DT     0101 Tx 8  FE DC BA 98 76 54 32 10 
   1459      6420.559 DT     0100 Rx 8  01 23 45 67 89 AB CD EF 
   1460      6422.063 DT     0101 Tx 8  FE DC BA 98 76 54 32 10 
   1461      6430.491 DT     0100 Rx 8  01 23 45 67 89 AB CD EF 
   1462      6432.039 DT     0101 Tx 8  FE DC BA 98 76 54 32 10 
   1463      6440.565 DT     0100 Rx 8  01 23 45 67 89 AB CD EF 
   1464      6442.038 DT     0101 Tx 8  FE DC BA 98 76 54 32 10 
   1465      6450.509 DT     0100 Rx 8  01 23 45 67 89 AB CD EF 
   1466      6452.027 DT     0101 Tx 8  FE DC BA 98 76 54 32 10 
   1467      6460.547 DT     0100 Rx 8  01 23 45 67 89 AB CD EF 
   1468      6462.013 DT     0101 Tx 8  FE DC BA 98 76 54 32 10 
   1469      6470.485 DT     0100 Rx 8  01 23 45 67 89 AB CD EF 
   1470      6472.025 DT     0101 Tx 8  FE DC BA 98 76 54 32 10 
   1471      6480.547 DT     0100 Rx 8  01 23 45 67 89 AB CD EF 
   1472      6482.031 DT     0101 Tx 8  FE DC BA 98 76 54 32 10 
   1473      6490.629 DT     0100 Rx 8  01 23 45 67 89 AB CD EF 
   1474      6492.033 DT     0101 Tx 8  FE DC BA 98 76 54 32 10 
   1475      6500.513 DT     0100 Rx 8  01 23 45 67 89 AB CD EF 
   1476      6502.064 DT     0101 Tx 8  FE DC BA 98 76 54 32 10 
   1477      6510.505 DT     0100 Rx 8  01 23 45 67 89 AB CD EF 
   1478      6512.083 DT     0101 Tx 8  FE DC BA 98 76 54 32 10 
   1479      6520.543 DT     0100 Rx 8  01 23 45 67 89 AB CD EF 
   1480      6522.037 DT     0101 Tx 8  FE DC BA 98 76 54 32 10 
   1481      6530.529 DT     0100 Rx 8  01 23 45 67 89 AB CD EF 
   1482      6532.070 DT     0101 Tx 8  FE DC BA 98 76 54 32 10 
   1483      6540.516 DT     0100 Rx 8  01 23 45 67 89 AB CD EF 
   1484      6542.037 DT     0101 Tx 8  FE DC BA 98 76 54 32 10 
   1485      6550.515 DT     0100 Rx 8  01 23 45 67 89 AB CD EF 
   1486      6552.066 DT     0101 Tx 8  FE DC BA 98 76 54 32 10 
   1487      6560.493 DT     0100 Rx 8  01 23 45 67 89 AB CD EF 
   1488      6562.024 DT     0101 Tx 8  FE DC BA 98 76 54 32 10 
   1489      6570.571 DT     0100 Rx 8  01 23 45 67 89 AB CD EF 
   1490      6572.032 DT     0101 Tx 8  FE DC BA 98 76 54 32 10 
   1491      6580.491 DT     0100 Rx 8  01 23 45 67 89 AB CD EF 
   1492      6582.016 DT     0101 Tx 8  FE DC BA 98 76 54 32 10 
   1493      6590.523 DT     0100 Rx 8  01 23 45 67 89 AB CD EF 
   1494      6592.026 DT     0101 Tx 8  FE DC BA 98 76 54 32 10 
   1495      6600.495 DT     0100 Rx 8  01 23 45 67 89 AB CD EF 
   1496      6602.016 DT     0101 Tx 8  FE DC BA 98 76 54 32 10 
   1497      6610.517 DT     0100 Rx 8  01 23 45 67 89 AB CD EF 
   1498      6612.028 DT     0101 Tx 8  FE DC BA 98 76 54 32 10 
   1499      6620.509 DT     0100 Rx 8  01 23 45 67 89 AB CD EF 
   1500      6622.022 DT     0101 Tx 8  FE DC BA 98 76 54 32 10 
   1501      6630.497 DT     0100 Rx 8  01 23 45 67 89 AB CD EF 
   1502      6632.019 DT     0101 Tx 8  FE DC BA 98 76 54 32 10 
   1503      6632.981 DT     0001 Rx 8  81 06 34 56 DE AD BE EF 
   1504      6640.493 DT     0100 Rx 8  01 23 45 67 89 AB CD EF 
   1505      6642.028 DT     0101 Tx 8  FE DC BA 98 76 54 32 10 
