;$FILEVERSION=2.0
;$STARTTIME=45050.5044979051
;$COLUMNS=N,O,T,I,d,l,D
;
;   Start time: 04/05/2023 12:06:28.619.0
;   Generated by PCAN-View v4.3.4.615
;-------------------------------------------------------------------------------
;   Connection                 Bit rate
;   PCANLight_USB_16@pcan_usb  500 kBit/s
;-------------------------------------------------------------------------------
;   Message   Time    Type ID     Rx/Tx
;   Number    Offset  |    [hex]  |  Data Length
;   |         [ms]    |    |      |  |  Data [hex] ...
;   |         |       |    |      |  |  |
;---+-- ------+------ +- --+----- +- +- +- +- -- -- -- -- -- -- --
    173       868.884 DT     0001 Rx 8  00 00 34 56 DE AD BE EF 
    179       890.876 DT     0001 Rx 8  01 01 34 56 DE AD BE EF 
    184       912.875 DT     0001 Rx 8  02 01 34 56 DE AD BE EF 
    190       934.877 DT     0001 Rx 8  03 01 34 56 DE AD BE EF 
    196       958.877 DT     0001 Rx 8  04 01 34 56 DE AD BE EF 
    201       981.017 DT     0001 Rx 8  05 02 34 56 DE AD BE EF 
    206      1002.880 DT     0001 Rx 8  06 02 34 56 DE AD BE EF 
    212      1025.879 DT     0001 Rx 8  07 02 34 56 DE AD BE EF 
    218      1048.868 DT     0001 Rx 8  08 02 34 56 DE AD BE EF 
    223      1071.022 DT     0001 Rx 8  09 03 34 56 DE AD BE EF 
    228      1092.869 DT     0001 Rx 8  0A 03 34 56 DE AD BE EF 
    234      1114.877 DT     0001 Rx 8  0B 03 34 56 DE AD BE EF 
    239      1136.875 DT     0001 Rx 8  0C 03 34 56 DE AD BE EF 
    244      1159.860 DT     0001 Rx 8  0D 04 34 56 DE AD BE EF 
    250      1182.863 DT     0001 Rx 8  0E 04 34 56 DE AD BE EF 
    256      1204.869 DT     0001 Rx 8  0F 04 34 56 DE AD BE EF 
    262      1228.854 DT     0001 Rx 8  10 04 34 56 DE AD BE EF 
    267      1251.866 DT     0001 Rx 8  11 05 34 56 DE AD BE EF 
    273      1274.859 DT     0001 Rx 8  12 05 34 56 DE AD BE EF 
    278      1297.856 DT     0001 Rx 8  13 05 34 56 DE AD BE EF 
    284      1320.860 DT     0001 Rx 8  14 05 34 56 DE AD BE EF 
    289      1343.857 DT     0001 Rx 8  15 05 34 56 DE AD BE EF 
    295      1366.856 DT     0001 Rx 8  16 06 34 56 DE AD BE EF 
    300      1389.729 DT     0001 Rx 8  17 07 34 56 DE AD BE EF 
    306      1412.733 DT     0001 Rx 8  18 07 34 56 DE AD BE EF 
    312      1435.948 DT     0001 Rx 8  19 07 34 56 DE AD BE EF 
    317      1457.828 DT     0001 Rx 8  1A 07 34 56 DE AD BE EF 
    323      1480.828 DT     0001 Rx 8  1B 08 34 56 DE AD BE EF 
    328      1502.827 DT     0001 Rx 8  1C 08 34 56 DE AD BE EF 
    334      1524.954 DT     0001 Rx 8  1D 08 34 56 DE AD BE EF 
    339      1548.950 DT     0001 Rx 8  1E 08 34 56 DE AD BE EF 
    345      1570.832 DT     0001 Rx 8  1F 09 34 56 DE AD BE EF 
    350      1592.817 DT     0001 Rx 8  20 09 34 56 DE AD BE EF 
    356      1614.816 DT     0001 Rx 8  21 09 34 56 DE AD BE EF 
    361      1638.822 DT     0001 Rx 8  22 09 34 56 DE AD BE EF 
    409      1870.937 DT     0001 Rx 8  00 00 34 56 DE AD BE EF 
    418      1912.932 DT     0001 Rx 8  23 00 34 56 DE AD BE EF 
    424      1934.937 DT     0001 Rx 8  24 00 34 56 DE AD BE EF 
    429      1956.800 DT     0001 Rx 8  25 00 34 56 DE AD BE EF 
    431      1960.808 DT     0001 Rx 8  04 01 34 56 DE AD BE EF 
    435      1978.810 DT     0001 Rx 8  26 01 34 56 DE AD BE EF 
    451      2050.811 DT     0001 Rx 8  08 02 34 56 DE AD BE EF 
    469      2138.925 DT     0001 Rx 8  0C 02 34 56 DE AD BE EF 
    489      2230.806 DT     0001 Rx 8  10 03 34 56 DE AD BE EF 
    494      2252.799 DT     0001 Rx 8  27 03 34 56 DE AD BE EF 
    500      2274.801 DT     0001 Rx 8  28 03 34 56 DE AD BE EF 
    505      2296.919 DT     0001 Rx 8  29 03 34 56 DE AD BE EF 
    510      2318.802 DT     0001 Rx 8  2A 04 34 56 DE AD BE EF 
    516      2340.797 DT     0001 Rx 8  2B 04 34 56 DE AD BE EF 
    518      2346.924 DT     0001 Rx 8  15 04 34 56 DE AD BE EF 
    522      2362.803 DT     0001 Rx 8  2C 04 34 56 DE AD BE EF 
    524      2367.916 DT     0001 Rx 8  16 04 34 56 DE AD BE EF 
    529      2384.916 DT     0001 Rx 8  2D 04 34 56 DE AD BE EF 
    534      2407.047 DT     0001 Rx 8  2E 04 34 56 DE AD BE EF 
    539      2428.832 DT     0001 Rx 8  2F 04 34 56 DE AD BE EF 
    545      2450.833 DT     0001 Rx 8  30 05 34 56 DE AD BE EF 
    547      2458.832 DT     0001 Rx 8  1A 05 34 56 DE AD BE EF 
    551      2472.699 DT     0001 Rx 8  31 06 34 56 DE AD BE EF 
    557      2494.813 DT     0001 Rx 8  32 07 34 56 DE AD BE EF 
    562      2516.942 DT     0001 Rx 8  33 07 34 56 DE AD BE EF 
    567      2538.819 DT     0001 Rx 8  34 07 34 56 DE AD BE EF 
    571      2549.942 DT     0001 Rx 8  1E 08 34 56 DE AD BE EF 
    574      2560.930 DT     0001 Rx 8  35 08 34 56 DE AD BE EF 
    579      2582.930 DT     0001 Rx 8  36 08 34 56 DE AD BE EF 
    592      2640.936 DT     0001 Rx 8  22 09 34 56 DE AD BE EF 
    636      2856.910 DT     0001 Rx 8  37 09 34 56 DE AD BE EF 
    642      2879.924 DT     0001 Rx 8  38 09 34 56 DE AD BE EF 
    658      2958.797 DT     0001 Rx 8  25 00 34 56 DE AD BE EF 
    664      2979.791 DT     0001 Rx 8  26 00 34 56 DE AD BE EF 
    697      3139.905 DT     0001 Rx 8  0C 01 34 56 DE AD BE EF 
    701      3155.918 DT     0001 Rx 8  39 01 34 56 DE AD BE EF 
    706      3178.901 DT     0001 Rx 8  3A 02 34 56 DE AD BE EF 
    712      3201.895 DT     0001 Rx 8  3B 02 34 56 DE AD BE EF 
    718      3224.912 DT     0001 Rx 8  3C 02 34 56 DE AD BE EF 
    723      3248.909 DT     0001 Rx 8  3D 02 34 56 DE AD BE EF 
    734      3297.901 DT     0001 Rx 8  29 03 34 56 DE AD BE EF 
    762      3430.798 DT     0001 Rx 8  2F 03 34 56 DE AD BE EF 
    769      3460.834 DT     0001 Rx 8  1A 03 34 56 DE AD BE EF 
    773      3475.675 DT     0001 Rx 8  31 03 34 56 DE AD BE EF 
    783      3523.667 DT     0001 Rx 8  3E 04 34 56 DE AD BE EF 
    787      3539.786 DT     0001 Rx 8  34 05 34 56 DE AD BE EF 
    790      3546.661 DT     0001 Rx 8  3F 06 34 56 DE AD BE EF 
    795      3568.668 DT     0001 Rx 8  40 06 34 56 DE AD BE EF 
    800      3584.666 DT     0001 Rx 8  36 07 34 56 DE AD BE EF 
    802      3590.666 DT     0001 Rx 8  41 07 34 56 DE AD BE EF 
    807      3613.656 DT     0001 Rx 8  42 07 34 56 DE AD BE EF 
    813      3635.787 DT     0001 Rx 8  43 08 34 56 DE AD BE EF 
    863      3880.785 DT     0001 Rx 8  38 09 34 56 DE AD BE EF 
    870      3910.768 DT     0001 Rx 8  44 09 34 56 DE AD BE EF 
    876      3933.956 DT     0001 Rx 8  45 09 34 56 DE AD BE EF 
    886      3981.646 DT     0001 Rx 8  26 00 34 56 DE AD BE EF 
    922      4157.776 DT     0001 Rx 8  39 00 34 56 DE AD BE EF 
    933      4208.771 DT     0001 Rx 8  46 00 34 56 DE AD BE EF 
    939      4230.759 DT     0001 Rx 8  47 01 34 56 DE AD BE EF 
    944      4249.760 DT     0001 Rx 8  3D 01 34 56 DE AD BE EF 
    946      4254.760 DT     0001 Rx 8  48 02 34 56 DE AD BE EF 
    951      4277.750 DT     0001 Rx 8  49 02 34 56 DE AD BE EF 
    992      4476.655 DT     0001 Rx 8  31 03 34 56 DE AD BE EF 
   1003      4525.526 DT     0001 Rx 8  3E 03 34 56 DE AD BE EF 
   1007      4540.644 DT     0001 Rx 8  34 04 34 56 DE AD BE EF 
   1010      4551.645 DT     0001 Rx 8  4A 04 34 56 DE AD BE EF 
   1015      4570.658 DT     0001 Rx 8  40 04 34 56 DE AD BE EF 
   1017      4575.637 DT     0001 Rx 8  4B 04 34 56 DE AD BE EF 
   1022      4598.645 DT     0001 Rx 8  4C 05 34 56 DE AD BE EF 
   1027      4615.648 DT     0001 Rx 8  42 05 34 56 DE AD BE EF 
   1029      4622.641 DT     0001 Rx 8  4D 06 34 56 DE AD BE EF 
   1033      4637.645 DT     0001 Rx 8  43 07 34 56 DE AD BE EF 
   1036      4644.640 DT     0001 Rx 8  4E 08 34 56 DE AD BE EF 
   1041      4667.648 DT     0001 Rx 8  4F 08 34 56 DE AD BE EF 
   1096      4934.627 DT     0001 Rx 8  45 09 34 56 DE AD BE EF 
   1099      4943.655 DT     0001 Rx 8  50 09 34 56 DE AD BE EF 
   1104      4966.636 DT     0001 Rx 8  51 09 34 56 DE AD BE EF 
   1109      4989.629 DT     0001 Rx 8  52 09 34 56 DE AD BE EF 
   1155      5210.630 DT     0001 Rx 8  46 00 34 56 DE AD BE EF 
   1164      5251.632 DT     0001 Rx 8  3D 00 34 56 DE AD BE EF 
   1168      5264.614 DT     0001 Rx 8  53 00 34 56 DE AD BE EF 
   1171      5278.495 DT     0001 Rx 8  49 00 34 56 DE AD BE EF 
   1174      5286.488 DT     0001 Rx 8  54 01 34 56 DE AD BE EF 
   1179      5308.503 DT     0001 Rx 8  55 01 34 56 DE AD BE EF 
   1185      5330.618 DT     0001 Rx 8  56 02 34 56 DE AD BE EF 
   1190      5352.610 DT     0001 Rx 8  57 02 34 56 DE AD BE EF 
   1196      5374.616 DT     0001 Rx 8  58 02 34 56 DE AD BE EF 
   1201      5396.606 DT     0001 Rx 8  59 02 34 56 DE AD BE EF 
   1228      5526.508 DT     0001 Rx 8  3E 03 34 56 DE AD BE EF 
   1239      5577.510 DT     0001 Rx 8  4B 03 34 56 DE AD BE EF 
   1248      5616.511 DT     0001 Rx 8  42 04 34 56 DE AD BE EF 
   1251      5625.510 DT     0001 Rx 8  4D 04 34 56 DE AD BE EF 
   1254      5638.504 DT     0001 Rx 8  43 05 34 56 DE AD BE EF 
   1261      5669.502 DT     0001 Rx 8  4F 05 34 56 DE AD BE EF 
   1263      5672.497 DT     0001 Rx 8  5A 06 34 56 DE AD BE EF 
   1269      5695.506 DT     0001 Rx 8  5B 07 34 56 DE AD BE EF 
   1274      5718.503 DT     0001 Rx 8  5C 08 34 56 DE AD BE EF 
   1280      5741.492 DT     0001 Rx 8  5D 08 34 56 DE AD BE EF 
   1286      5764.495 DT     0001 Rx 8  5E 08 34 56 DE AD BE EF 
   1291      5787.508 DT     0001 Rx 8  5F 08 34 56 DE AD BE EF 
   1333      5990.480 DT     0001 Rx 8  52 09 34 56 DE AD BE EF 
   1348      6062.490 DT     0001 Rx 8  60 09 34 56 DE AD BE EF 
   1354      6085.492 DT     0001 Rx 8  61 09 34 56 DE AD BE EF 
   1359      6108.492 DT     0001 Rx 8  62 09 34 56 DE AD BE EF 
   1394      6279.480 DT     0001 Rx 8  49 00 34 56 DE AD BE EF 
   1402      6310.692 DT     0001 Rx 8  55 00 34 56 DE AD BE EF 
   1418      6385.482 DT     0001 Rx 8  63 01 34 56 DE AD BE EF 
   1421      6398.482 DT     0001 Rx 8  59 01 34 56 DE AD BE EF 
   1424      6407.482 DT     0001 Rx 8  64 02 34 56 DE AD BE EF 
   1430      6430.576 DT     0001 Rx 8  65 02 34 56 DE AD BE EF 
   1435      6452.576 DT     0001 Rx 8  66 02 34 56 DE AD BE EF 
   1461      6578.562 DT     0001 Rx 8  4B 03 34 56 DE AD BE EF 
   1472      6626.563 DT     0001 Rx 8  4D 04 34 56 DE AD BE EF 
   1482      6671.571 DT     0001 Rx 8  4F 04 34 56 DE AD BE EF 
   1484      6673.569 DT     0001 Rx 8  5A 04 34 56 DE AD BE EF 
   1489      6697.572 DT     0001 Rx 8  5B 05 34 56 DE AD BE EF 
   1496      6726.687 DT     0001 Rx 8  67 06 34 56 DE AD BE EF 
   1502      6749.684 DT     0001 Rx 8  68 06 34 56 DE AD BE EF 
   1507      6772.558 DT     0001 Rx 8  69 07 34 56 DE AD BE EF 
   1511      6789.555 DT     0001 Rx 8  5F 08 34 56 DE AD BE EF 
   1576      7109.542 DT     0001 Rx 8  62 09 34 56 DE AD BE EF 
   1616      7300.546 DT     0001 Rx 8  6A 09 34 56 DE AD BE EF 
   1619      7312.653 DT     0001 Rx 8  55 00 34 56 DE AD BE EF 
   1638      7400.652 DT     0001 Rx 8  59 01 34 56 DE AD BE EF 
   1649      7453.555 DT     0001 Rx 8  66 01 34 56 DE AD BE EF 
   1675      7574.552 DT     0001 Rx 8  6B 02 34 56 DE AD BE EF 
   1677      7579.548 DT     0001 Rx 8  4B 02 34 56 DE AD BE EF 
   1681      7596.548 DT     0001 Rx 8  6C 02 34 56 DE AD BE EF 
   1686      7619.546 DT     0001 Rx 8  6D 03 34 56 DE AD BE EF 
   1692      7642.552 DT     0001 Rx 8  6E 03 34 56 DE AD BE EF 
   1698      7665.549 DT     0001 Rx 8  6F 03 34 56 DE AD BE EF 
   1701      7676.542 DT     0001 Rx 8  5A 03 34 56 DE AD BE EF 
   1704      7687.546 DT     0001 Rx 8  70 04 34 56 DE AD BE EF 
   1708      7698.553 DT     0001 Rx 8  5B 04 34 56 DE AD BE EF 
   1711      7710.545 DT     0001 Rx 8  71 05 34 56 DE AD BE EF 
   1716      7732.422 DT     0001 Rx 8  72 05 34 56 DE AD BE EF 
   1721      7750.418 DT     0001 Rx 8  68 05 34 56 DE AD BE EF 
   1723      7756.421 DT     0001 Rx 8  73 05 34 56 DE AD BE EF 
   1727      7773.410 DT     0001 Rx 8  69 06 34 56 DE AD BE EF 
   1729      7778.545 DT     0001 Rx 8  74 07 34 56 DE AD BE EF 
   1733      7792.546 DT     0001 Rx 8  5F 08 34 56 DE AD BE EF 
   1836      8302.400 DT     0001 Rx 8  6A 09 34 56 DE AD BE EF 
   1838      8304.392 DT     0001 Rx 8  75 09 34 56 DE AD BE EF 
   1840      8313.401 DT     0001 Rx 8  55 00 34 56 DE AD BE EF 
   1844      8327.530 DT     0001 Rx 8  76 00 34 56 DE AD BE EF 
   1850      8350.747 DT     0001 Rx 8  77 00 34 56 DE AD BE EF 
   1855      8373.394 DT     0001 Rx 8  78 09 34 56 DE AD BE EF 
   1873      8454.615 DT     0001 Rx 8  66 01 34 56 DE AD BE EF 
   1902      8597.601 DT     0001 Rx 8  6C 01 34 56 DE AD BE EF 
   1913      8648.489 DT     0001 Rx 8  79 01 34 56 DE AD BE EF 
   1919      8671.479 DT     0001 Rx 8  7A 02 34 56 DE AD BE EF 
   1921      8678.486 DT     0001 Rx 8  5A 02 34 56 DE AD BE EF 
   1925      8693.471 DT     0001 Rx 8  7B 03 34 56 DE AD BE EF 
   1928      8700.612 DT     0001 Rx 8  5B 04 34 56 DE AD BE EF 
   1940      8757.477 DT     0001 Rx 8  73 05 34 56 DE AD BE EF 
   1945      8774.480 DT     0001 Rx 8  69 05 34 56 DE AD BE EF 
   1947      8779.468 DT     0001 Rx 8  74 05 34 56 DE AD BE EF 
   1951      8794.480 DT     0001 Rx 8  5F 05 34 56 DE AD BE EF 
   1986      8967.477 DT     0001 Rx 8  7C 05 34 56 DE AD BE EF 
   1992      8990.473 DT     0001 Rx 8  7D 05 34 56 DE AD BE EF 
   1997      9013.587 DT     0001 Rx 8  7E 06 34 56 DE AD BE EF 
   2003      9036.590 DT     0001 Rx 8  7F 07 34 56 DE AD BE EF 
   2009      9058.473 DT     0001 Rx 8  80 08 34 56 DE AD BE EF 
   2014      9080.457 DT     0001 Rx 8  81 08 34 56 DE AD BE EF 
   2069      9353.577 DT     0001 Rx 8  77 00 34 56 DE AD BE EF 
   2075      9374.577 DT     0001 Rx 8  78 09 34 56 DE AD BE EF 
   2123      9609.662 DT     0001 Rx 8  82 09 34 56 DE AD BE EF 
   2128      9632.550 DT     0001 Rx 8  83 09 34 56 DE AD BE EF 
   2133      9650.667 DT     0001 Rx 8  79 01 34 56 DE AD BE EF 
   2135      9656.536 DT     0001 Rx 8  84 01 34 56 DE AD BE EF 
   2141      9678.535 DT     0001 Rx 8  85 09 34 56 DE AD BE EF 
   2142      9683.671 DT     0001 Rx 8  5A 02 34 56 DE AD BE EF 
   2146      9695.539 DT     0001 Rx 8  7B 02 34 56 DE AD BE EF 
   2148      9701.533 DT     0001 Rx 8  5B 02 34 56 DE AD BE EF 
   2149      9701.763 DT     0001 Rx 8  86 03 34 56 DE AD BE EF 
   2155      9724.541 DT     0001 Rx 8  87 02 34 56 DE AD BE EF 
   2160      9747.530 DT     0001 Rx 8  88 02 34 56 DE AD BE EF 
   2166      9770.544 DT     0001 Rx 8  89 02 34 56 DE AD BE EF 
   2172      9795.537 DT     0001 Rx 8  8A 02 34 56 DE AD BE EF 
   2177      9818.524 DT     0001 Rx 8  8B 02 34 56 DE AD BE EF 
   2183      9842.657 DT     0001 Rx 8  8C 03 34 56 DE AD BE EF 
   2189      9864.657 DT     0001 Rx 8  8D 04 34 56 DE AD BE EF 
   2194      9887.528 DT     0001 Rx 8  8E 04 34 56 DE AD BE EF 
   2200      9910.646 DT     0001 Rx 8  8F 04 34 56 DE AD BE EF 
   2205      9933.650 DT     0001 Rx 8  90 04 34 56 DE AD BE EF 
   2211      9956.533 DT     0001 Rx 8  91 09 34 56 DE AD BE EF 
   2219      9991.523 DT     0001 Rx 8  7D 05 34 56 DE AD BE EF 
   2225     10014.531 DT     0001 Rx 8  7E 05 34 56 DE AD BE EF 
   2230     10037.518 DT     0001 Rx 8  7F 05 34 56 DE AD BE EF 
   2240     10081.529 DT     0001 Rx 8  81 05 34 56 DE AD BE EF 
   2271     10232.634 DT     0001 Rx 8  92 05 34 56 DE AD BE EF 
   2277     10254.522 DT     0001 Rx 8  93 06 34 56 DE AD BE EF 
   2282     10276.511 DT     0001 Rx 8  94 06 34 56 DE AD BE EF 
   2287     10298.514 DT     0001 Rx 8  95 06 34 56 DE AD BE EF 
   2293     10320.530 DT     0001 Rx 8  96 07 34 56 DE AD BE EF 
   2298     10342.640 DT     0001 Rx 8  97 07 34 56 DE AD BE EF 
   2302     10354.630 DT     0001 Rx 8  77 00 34 56 DE AD BE EF 
   2305     10364.634 DT     0001 Rx 8  98 00 34 56 DE AD BE EF 
   2310     10386.639 DT     0001 Rx 8  99 00 34 56 DE AD BE EF 
   2315     10408.630 DT     0001 Rx 8  9A 00 34 56 DE AD BE EF 
   2321     10430.653 DT     0001 Rx 8  9B 07 34 56 DE AD BE EF 
   2326     10452.654 DT     0001 Rx 8  9C 07 34 56 DE AD BE EF 
   2332     10474.516 DT     0001 Rx 8  9D 07 34 56 DE AD BE EF 
   2337     10496.521 DT     0001 Rx 8  9E 07 34 56 DE AD BE EF 
   2342     10518.654 DT     0001 Rx 8  9F 08 34 56 DE AD BE EF 
   2348     10540.638 DT     0001 Rx 8  A0 08 34 56 DE AD BE EF 
   2353     10562.525 DT     0001 Rx 8  A1 08 34 56 DE AD BE EF 
   2373     10658.646 DT     0001 Rx 8  84 01 34 56 DE AD BE EF 
   2407     10820.637 DT     0001 Rx 8  8B 02 34 56 DE AD BE EF 
   2411     10836.641 DT     0001 Rx 8  A2 02 34 56 DE AD BE EF 
   2414     10844.649 DT     0001 Rx 8  8C 03 34 56 DE AD BE EF 
   2417     10858.646 DT     0001 Rx 8  A3 03 34 56 DE AD BE EF 
   2434     10935.742 DT     0001 Rx 8  90 04 34 56 DE AD BE EF 
   2439     10958.747 DT     0001 Rx 8  91 04 34 56 DE AD BE EF 
   2476     11135.754 DT     0001 Rx 8  A4 09 34 56 DE AD BE EF 
   2481     11158.611 DT     0001 Rx 8  A5 09 34 56 DE AD BE EF 
   2498     11233.867 DT     0001 Rx 8  92 05 34 56 DE AD BE EF 
   2511     11299.607 DT     0001 Rx 8  95 06 34 56 DE AD BE EF 
   2535     11410.739 DT     0001 Rx 8  9A 00 34 56 DE AD BE EF 
   2541     11433.627 DT     0001 Rx 8  A6 00 34 56 DE AD BE EF 
   2546     11456.503 DT     0001 Rx 8  A7 00 34 56 DE AD BE EF 
   2551     11479.512 DT     0001 Rx 8  A8 00 34 56 DE AD BE EF 
   2556     11498.498 DT     0001 Rx 8  9E 07 34 56 DE AD BE EF 
   2558     11502.626 DT     0001 Rx 8  A9 07 34 56 DE AD BE EF 
   2564     11524.638 DT     0001 Rx 8  AA 07 34 56 DE AD BE EF 
   2569     11547.631 DT     0001 Rx 8  AB 07 34 56 DE AD BE EF 
   2574     11564.493 DT     0001 Rx 8  A1 08 34 56 DE AD BE EF 
   2576     11570.493 DT     0001 Rx 8  AC 08 34 56 DE AD BE EF 
   2581     11592.495 DT     0001 Rx 8  AD 08 34 56 DE AD BE EF 
   2596     11659.498 DT     0001 Rx 8  84 01 34 56 DE AD BE EF 
   2632     11838.481 DT     0001 Rx 8  A2 02 34 56 DE AD BE EF 
   2638     11859.494 DT     0001 Rx 8  A3 02 34 56 DE AD BE EF 
   2640     11868.484 DT     0001 Rx 8  AE 03 34 56 DE AD BE EF 
   2646     11891.487 DT     0001 Rx 8  AF 03 34 56 DE AD BE EF 
   2652     11914.489 DT     0001 Rx 8  B0 03 34 56 DE AD BE EF 
   2657     11937.488 DT     0001 Rx 8  B1 03 34 56 DE AD BE EF 
   2663     11960.490 DT     0001 Rx 8  91 04 34 56 DE AD BE EF 
   2703     12159.601 DT     0001 Rx 8  A5 04 34 56 DE AD BE EF 
   2715     12212.485 DT     0001 Rx 8  B2 09 34 56 DE AD BE EF 
   2721     12235.474 DT     0001 Rx 8  92 05 34 56 DE AD BE EF 
   2735     12300.462 DT     0001 Rx 8  95 06 34 56 DE AD BE EF 
   2772     12481.536 DT     0001 Rx 8  A8 00 34 56 DE AD BE EF 
   2774     12487.522 DT     0001 Rx 8  B3 00 34 56 DE AD BE EF 
   2779     12509.534 DT     0001 Rx 8  B4 00 34 56 DE AD BE EF 
   2785     12532.520 DT     0001 Rx 8  B5 06 34 56 DE AD BE EF 
   2790     12549.410 DT     0001 Rx 8  AB 07 34 56 DE AD BE EF 
   2800     12594.516 DT     0001 Rx 8  AD 08 34 56 DE AD BE EF 
   2814     12661.392 DT     0001 Rx 8  84 01 34 56 DE AD BE EF 
   2844     12806.506 DT     0001 Rx 8  B6 01 34 56 DE AD BE EF 
   2849     12828.515 DT     0001 Rx 8  B7 01 34 56 DE AD BE EF 
   2855     12850.511 DT     0001 Rx 8  B8 08 34 56 DE AD BE EF 
   2858     12860.645 DT     0001 Rx 8  A3 02 34 56 DE AD BE EF 
   2862     12875.509 DT     0001 Rx 8  B9 08 34 56 DE AD BE EF 
   2867     12898.514 DT     0001 Rx 8  BA 08 34 56 DE AD BE EF 
   2877     12938.499 DT     0001 Rx 8  B1 03 34 56 DE AD BE EF 
   2922     13161.505 DT     0001 Rx 8  A5 03 34 56 DE AD BE EF 
   2926     13176.371 DT     0001 Rx 8  BB 03 34 56 DE AD BE EF 
   2931     13198.376 DT     0001 Rx 8  BC 03 34 56 DE AD BE EF 
   2936     13214.371 DT     0001 Rx 8  B2 04 34 56 DE AD BE EF 
   2938     13220.371 DT     0001 Rx 8  BD 04 34 56 DE AD BE EF 
   2942     13236.370 DT     0001 Rx 8  92 05 34 56 DE AD BE EF 
   2944     13242.368 DT     0001 Rx 8  BE 05 34 56 DE AD BE EF 
   2950     13264.486 DT     0001 Rx 8  BF 05 34 56 DE AD BE EF 
   2955     13287.499 DT     0001 Rx 8  C0 05 34 56 DE AD BE EF 
   2961     13310.437 DT     0001 Rx 8  C1 09 34 56 DE AD BE EF 
   2967     13333.483 DT     0001 Rx 8  C2 09 34 56 DE AD BE EF 
   2972     13356.502 DT     0001 Rx 8  C3 09 34 56 DE AD BE EF 
   2978     13379.499 DT     0001 Rx 8  C4 09 34 56 DE AD BE EF 
   3005     13510.632 DT     0001 Rx 8  B4 00 34 56 DE AD BE EF 
   3011     13533.606 DT     0001 Rx 8  B5 00 34 56 DE AD BE EF 
   3015     13550.644 DT     0001 Rx 8  AB 00 34 56 DE AD BE EF 
   3037     13654.458 DT     0001 Rx 8  C5 00 34 56 DE AD BE EF 
   3042     13676.585 DT     0001 Rx 8  C6 00 34 56 DE AD BE EF 
   3047     13698.589 DT     0001 Rx 8  C7 00 34 56 DE AD BE EF 
   3053     13720.569 DT     0001 Rx 8  C8 06 34 56 DE AD BE EF 
   3058     13742.450 DT     0001 Rx 8  C9 06 34 56 DE AD BE EF 
   3064     13764.458 DT     0001 Rx 8  CA 06 34 56 DE AD BE EF 
   3069     13786.455 DT     0001 Rx 8  CB 06 34 56 DE AD BE EF 
   3074     13808.569 DT     0001 Rx 8  CC 07 34 56 DE AD BE EF 
   3080     13830.452 DT     0001 Rx 8  B7 01 34 56 DE AD BE EF 
   3081     13830.682 DT     0001 Rx 8  CD 07 34 56 DE AD BE EF 
   3086     13852.451 DT     0001 Rx 8  CE 01 34 56 DE AD BE EF 
   3089     13862.562 DT     0001 Rx 8  A3 01 34 56 DE AD BE EF 
   3093     13874.447 DT     0001 Rx 8  CF 02 34 56 DE AD BE EF 
   3098     13896.441 DT     0001 Rx 8  D0 02 34 56 DE AD BE EF 
   3100     13902.574 DT     0001 Rx 8  BA 02 34 56 DE AD BE EF 
   3104     13918.572 DT     0001 Rx 8  D1 02 34 56 DE AD BE EF 
   3110     13940.448 DT     0001 Rx 8  D2 02 34 56 DE AD BE EF 
   3115     13962.442 DT     0001 Rx 8  D3 02 34 56 DE AD BE EF 
   3121     13984.436 DT     0001 Rx 8  D4 07 34 56 DE AD BE EF 
   3126     14006.442 DT     0001 Rx 8  D5 07 34 56 DE AD BE EF 
   3131     14028.572 DT     0001 Rx 8  D6 07 34 56 DE AD BE EF 
   3137     14050.437 DT     0001 Rx 8  D7 08 34 56 DE AD BE EF 
   3142     14072.440 DT     0001 Rx 8  D8 08 34 56 DE AD BE EF 
   3148     14094.430 DT     0001 Rx 8  D9 08 34 56 DE AD BE EF 
   3153     14116.439 DT     0001 Rx 8  DA 08 34 56 DE AD BE EF 
   3171     14200.432 DT     0001 Rx 8  BC 03 34 56 DE AD BE EF 
   3176     14222.429 DT     0001 Rx 8  BD 03 34 56 DE AD BE EF 
   3190     14288.545 DT     0001 Rx 8  C0 03 34 56 DE AD BE EF 
   3210     14380.553 DT     0001 Rx 8  C4 03 34 56 DE AD BE EF 
   3213     14391.665 DT     0001 Rx 8  DB 04 34 56 DE AD BE EF 
   3219     14414.682 DT     0001 Rx 8  DC 05 34 56 DE AD BE EF 
   3224     14437.652 DT     0001 Rx 8  DD 09 34 56 DE AD BE EF 
   3230     14460.640 DT     0001 Rx 8  DE 09 34 56 DE AD BE EF 
   3278     14699.513 DT     0001 Rx 8  C7 00 34 56 DE AD BE EF 
   3287     14737.632 DT     0001 Rx 8  DF 00 34 56 DE AD BE EF 
   3298     14787.506 DT     0001 Rx 8  CB 06 34 56 DE AD BE EF 
   3315     14865.636 DT     0001 Rx 8  A3 01 34 56 DE AD BE EF 
   3336     14963.764 DT     0001 Rx 8  D3 02 34 56 DE AD BE EF 
   3346     15012.641 DT     0001 Rx 8  E0 06 34 56 DE AD BE EF 
   3351     15030.642 DT     0001 Rx 8  D6 06 34 56 DE AD BE EF 
   3353     15036.635 DT     0001 Rx 8  E1 06 34 56 DE AD BE EF 
   3358     15059.640 DT     0001 Rx 8  E2 07 34 56 DE AD BE EF 
   3364     15082.636 DT     0001 Rx 8  E3 07 34 56 DE AD BE EF 
   3370     15105.633 DT     0001 Rx 8  E4 07 34 56 DE AD BE EF 
   3373     15118.626 DT     0001 Rx 8  DA 07 34 56 DE AD BE EF 
   3376     15127.743 DT     0001 Rx 8  E5 08 34 56 DE AD BE EF 
   3382     15150.747 DT     0001 Rx 8  E6 08 34 56 DE AD BE EF 
   3387     15172.736 DT     0001 Rx 8  E7 08 34 56 DE AD BE EF 
   3430     15382.736 DT     0001 Rx 8  C4 03 34 56 DE AD BE EF 
   3434     15393.943 DT     0001 Rx 8  DB 03 34 56 DE AD BE EF 
   3439     15416.724 DT     0001 Rx 8  DC 04 34 56 DE AD BE EF 
   3446     15447.609 DT     0001 Rx 8  E8 05 34 56 DE AD BE EF 
   3450     15462.723 DT     0001 Rx 8  DE 05 34 56 DE AD BE EF 
   3453     15470.731 DT     0001 Rx 8  E9 05 34 56 DE AD BE EF 
   3458     15492.737 DT     0001 Rx 8  EA 05 34 56 DE AD BE EF 
   3464     15515.599 DT     0001 Rx 8  EB 05 34 56 DE AD BE EF 
   3469     15538.601 DT     0001 Rx 8  EC 05 34 56 DE AD BE EF 
   3475     15561.716 DT     0001 Rx 8  ED 09 34 56 DE AD BE EF 
   3481     15584.592 DT     0001 Rx 8  EE 09 34 56 DE AD BE EF 
   3486     15607.599 DT     0001 Rx 8  EF 09 34 56 DE AD BE EF 
   3492     15630.602 DT     0001 Rx 8  F0 09 34 56 DE AD BE EF 
   3514     15739.724 DT     0001 Rx 8  DF 00 34 56 DE AD BE EF 
   3541     15866.584 DT     0001 Rx 8  A3 00 34 56 DE AD BE EF 
   3550     15905.578 DT     0001 Rx 8  F1 01 34 56 DE AD BE EF 
   3555     15928.581 DT     0001 Rx 8  F2 01 34 56 DE AD BE EF 
   3564     15965.703 DT     0001 Rx 8  D3 02 34 56 DE AD BE EF 
   3579     16037.584 DT     0001 Rx 8  E1 02 34 56 DE AD BE EF 
   3597     16120.649 DT     0001 Rx 8  DA 06 34 56 DE AD BE EF 
   3609     16173.585 DT     0001 Rx 8  E7 06 34 56 DE AD BE EF 
   3616     16205.569 DT     0001 Rx 8  F3 06 34 56 DE AD BE EF 
   3621     16227.570 DT     0001 Rx 8  F4 06 34 56 DE AD BE EF 
   3627     16249.699 DT     0001 Rx 8  F5 07 34 56 DE AD BE EF 
   3632     16271.701 DT     0001 Rx 8  F6 07 34 56 DE AD BE EF 
   3638     16293.699 DT     0001 Rx 8  F7 07 34 56 DE AD BE EF 
   3643     16316.692 DT     0001 Rx 8  F8 08 34 56 DE AD BE EF 
   3660     16395.684 DT     0001 Rx 8  DB 03 34 56 DE AD BE EF 
   3666     16418.461 DT     0001 Rx 8  DC 03 34 56 DE AD BE EF 
   3691     16540.580 DT     0001 Rx 8  EC 04 34 56 DE AD BE EF 
   3702     16590.581 DT     0001 Rx 8  F9 04 34 56 DE AD BE EF 
   3707     16612.585 DT     0001 Rx 8  FA 04 34 56 DE AD BE EF 
   3712     16632.456 DT     0001 Rx 8  F0 05 34 56 DE AD BE EF 
   3714     16634.576 DT     0001 Rx 8  FB 05 34 56 DE AD BE EF 
   3719     16656.454 DT     0001 Rx 8  FC 05 34 56 DE AD BE EF 
   3724     16678.445 DT     0001 Rx 8  FD 09 34 56 DE AD BE EF 
   3730     16700.573 DT     0001 Rx 8  FE 09 34 56 DE AD BE EF 
   3735     16722.573 DT     0001 Rx 8  FF 09 34 56 DE AD BE EF 
   3765     16868.454 DT     0001 Rx 8  A3 00 34 56 DE AD BE EF 
   3779     16930.445 DT     0001 Rx 8  F2 01 34 56 DE AD BE EF 
   3793     16996.576 DT     0001 Rx 8  00 01 34 56 DE AD BE EF 
   3803     17038.446 DT     0001 Rx 8  E1 02 34 56 DE AD BE EF 
   3841     17228.437 DT     0001 Rx 8  F4 02 34 56 DE AD BE EF 
   3851     17270.562 DT     0001 Rx 8  01 06 34 56 DE AD BE EF 
   3856     17292.557 DT     0001 Rx 8  02 06 34 56 DE AD BE EF 
   3858     17297.549 DT     0001 Rx 8  F7 06 34 56 DE AD BE EF 
   3863     17314.563 DT     0001 Rx 8  03 06 34 56 DE AD BE EF 
   3865     17319.559 DT     0001 Rx 8  F8 06 34 56 DE AD BE EF 
   3869     17336.561 DT     0001 Rx 8  04 06 34 56 DE AD BE EF 
   3874     17358.556 DT     0001 Rx 8  05 07 34 56 DE AD BE EF 
   3880     17380.426 DT     0001 Rx 8  06 07 34 56 DE AD BE EF 
   3885     17402.432 DT     0001 Rx 8  07 07 34 56 DE AD BE EF 
   3890     17420.447 DT     0001 Rx 8  DC 03 34 56 DE AD BE EF 
   3892     17425.469 DT     0001 Rx 8  08 03 34 56 DE AD BE EF 
   3897     17448.448 DT     0001 Rx 8  09 03 34 56 DE AD BE EF 
   3903     17470.456 DT     0001 Rx 8  0A 08 34 56 DE AD BE EF 
   3908     17492.459 DT     0001 Rx 8  0B 08 34 56 DE AD BE EF 
   3914     17514.450 DT     0001 Rx 8  0C 08 34 56 DE AD BE EF 
   3919     17536.335 DT     0001 Rx 8  0D 08 34 56 DE AD BE EF 
