;$FILEVERSION=2.0
;$STARTTIME=45050.5044979051
;$COLUMNS=N,O,T,I,d,l,D
;
;   Start time: 04/05/2023 12:06:28.619.0
;   Generated by PCAN-View v4.3.4.615
;-------------------------------------------------------------------------------
;   Connection                 Bit rate
;   PCANLight_USB_16@pcan_usb  500 kBit/s
;-------------------------------------------------------------------------------
;   Message   Time    Type ID     Rx/Tx
;   Number    Offset  |    [hex]  |  Data Length
;   |         [ms]    |    |      |  |  Data [hex] ...
;   |         |       |    |      |  |  |
;---+-- ------+------ +- --+----- +- +- +- +- -- -- -- -- -- -- --
      1         3.872 DT     0100 Rx 8  01 23 45 67 89 AB CD EF 
      2        13.852 DT     0100 Rx 8  01 23 45 67 89 AB CD EF 
      3        20.597 DT     0101 Tx 8  FE DC BA 98 76 54 32 10 
      4        23.862 DT     0100 Rx 8  01 23 45 67 89 AB CD EF 
      5        30.585 DT     0101 Tx 8  FE DC BA 98 76 54 32 10 
      6        33.822 DT     0100 Rx 8  01 23 45 67 89 AB CD EF 
      7        40.600 DT     0101 Tx 8  FE DC BA 98 76 54 32 10 
      8        43.826 DT     0100 Rx 8  01 23 45 67 89 AB CD EF 
      9        50.585 DT     0101 Tx 8  FE DC BA 98 76 54 32 10 
     10        53.844 DT     0100 Rx 8  01 23 45 67 89 AB CD EF 
     11        60.588 DT     0101 Tx 8  FE DC BA 98 76 54 32 10 
     12        63.840 DT     0100 Rx 8  01 23 45 67 89 AB CD EF 
     13        70.599 DT     0101 Tx 8  FE DC BA 98 76 54 32 10 
     14        73.836 DT     0100 Rx 8  01 23 45 67 89 AB CD EF 
     15        80.591 DT     0101 Tx 8  FE DC BA 98 76 54 32 10 
     16        83.837 DT     0100 Rx 8  01 23 45 67 89 AB CD EF 
     17        90.587 DT     0101 Tx 8  FE DC BA 98 76 54 32 10 
     18        93.857 DT     0100 Rx 8  01 23 45 67 89 AB CD EF 
     19       100.593 DT     0101 Tx 8  FE DC BA 98 76 54 32 10 
     20       103.845 DT     0100 Rx 8  01 23 45 67 89 AB CD EF 
     21       110.584 DT     0101 Tx 8  FE DC BA 98 76 54 32 10 
     22       113.850 DT     0100 Rx 8  01 23 45 67 89 AB CD EF 
     23       120.607 DT     0101 Tx 8  FE DC BA 98 76 54 32 10 
     24       123.824 DT     0100 Rx 8  01 23 45 67 89 AB CD EF 
     25       130.592 DT     0101 Tx 8  FE DC BA 98 76 54 32 10 
     26       133.834 DT     0100 Rx 8  01 23 45 67 89 AB CD EF 
     27       140.616 DT     0101 Tx 8  FE DC BA 98 76 54 32 10 
     28       143.832 DT     0100 Rx 8  01 23 45 67 89 AB CD EF 
     29       150.617 DT     0101 Tx 8  FE DC BA 98 76 54 32 10 
     30       153.824 DT     0100 Rx 8  01 23 45 67 89 AB CD EF 
     31       160.624 DT     0101 Tx 8  FE DC BA 98 76 54 32 10 
     32       163.882 DT     0100 Rx 8  01 23 45 67 89 AB CD EF 
     33       170.584 DT     0101 Tx 8  FE DC BA 98 76 54 32 10 
     34       173.848 DT     0100 Rx 8  01 23 45 67 89 AB CD EF 
     35       180.587 DT     0101 Tx 8  FE DC BA 98 76 54 32 10 
     36       183.836 DT     0100 Rx 8  01 23 45 67 89 AB CD EF 
     37       190.598 DT     0101 Tx 8  FE DC BA 98 76 54 32 10 
     38       193.822 DT     0100 Rx 8  01 23 45 67 89 AB CD EF 
     39       200.588 DT     0101 Tx 8  FE DC BA 98 76 54 32 10 
     40       203.828 DT     0100 Rx 8  01 23 45 67 89 AB CD EF 
     41       210.632 DT     0101 Tx 8  FE DC BA 98 76 54 32 10 
     42       213.831 DT     0100 Rx 8  01 23 45 67 89 AB CD EF 
     43       220.600 DT     0101 Tx 8  FE DC BA 98 76 54 32 10 
     44       223.885 DT     0100 Rx 8  01 23 45 67 89 AB CD EF 
     45       230.621 DT     0101 Tx 8  FE DC BA 98 76 54 32 10 
     46       233.857 DT     0100 Rx 8  01 23 45 67 89 AB CD EF 
     47       240.118 DT     0101 Tx 8  FE DC BA 98 76 54 32 10 
     48       243.669 DT     0100 Rx 8  01 23 45 67 89 AB CD EF 
     49       250.426 DT     0101 Tx 8  FE DC BA 98 76 54 32 10 
     50       253.647 DT     0100 Rx 8  01 23 45 67 89 AB CD EF 
     51       260.470 DT     0101 Tx 8  FE DC BA 98 76 54 32 10 
     52       263.671 DT     0100 Rx 8  01 23 45 67 89 AB CD EF 
     53       270.449 DT     0101 Tx 8  FE DC BA 98 76 54 32 10 
     54       273.669 DT     0100 Rx 8  01 23 45 67 89 AB CD EF 
     55       280.428 DT     0101 Tx 8  FE DC BA 98 76 54 32 10 
     56       283.688 DT     0100 Rx 8  01 23 45 67 89 AB CD EF 
     57       290.448 DT     0101 Tx 8  FE DC BA 98 76 54 32 10 
     58       293.642 DT     0100 Rx 8  01 23 45 67 89 AB CD EF 
     59       300.441 DT     0101 Tx 8  FE DC BA 98 76 54 32 10 
     60       303.680 DT     0100 Rx 8  01 23 45 67 89 AB CD EF 
     61       310.431 DT     0101 Tx 8  FE DC BA 98 76 54 32 10 
     62       313.686 DT     0100 Rx 8  01 23 45 67 89 AB CD EF 
     63       320.442 DT     0101 Tx 8  FE DC BA 98 76 54 32 10 
     64       323.684 DT     0100 Rx 8  01 23 45 67 89 AB CD EF 
     65       330.434 DT     0101 Tx 8  FE DC BA 98 76 54 32 10 
     66       333.680 DT     0100 Rx 8  01 23 45 67 89 AB CD EF 
     67       340.425 DT     0101 Tx 8  FE DC BA 98 76 54 32 10 
     68       343.701 DT     0100 Rx 8  01 23 45 67 89 AB CD EF 
     69       350.434 DT     0101 Tx 8  FE DC BA 98 76 54 32 10 
     70       353.677 DT     0100 Rx 8  01 23 45 67 89 AB CD EF 
     71       360.473 DT     0101 Tx 8  FE DC BA 98 76 54 32 10 
     72       363.697 DT     0100 Rx 8  01 23 45 67 89 AB CD EF 
     73       370.448 DT     0101 Tx 8  FE DC BA 98 76 54 32 10 
     74       373.683 DT     0100 Rx 8  01 23 45 67 89 AB CD EF 
     75       380.432 DT     0101 Tx 8  FE DC BA 98 76 54 32 10 
     76       383.641 DT     0100 Rx 8  01 23 45 67 89 AB CD EF 
     77       390.463 DT     0101 Tx 8  FE DC BA 98 76 54 32 10 
     78       393.663 DT     0100 Rx 8  01 23 45 67 89 AB CD EF 
     79       400.448 DT     0101 Tx 8  FE DC BA 98 76 54 32 10 
     80       403.687 DT     0100 Rx 8  01 23 45 67 89 AB CD EF 
     81       410.429 DT     0101 Tx 8  FE DC BA 98 76 54 32 10 
     82       413.727 DT     0100 Rx 8  01 23 45 67 89 AB CD EF 
     83       420.427 DT     0101 Tx 8  FE DC BA 98 76 54 32 10 
     84       423.569 DT     0100 Rx 8  01 23 45 67 89 AB CD EF 
     85       430.468 DT     0101 Tx 8  FE DC BA 98 76 54 32 10 
     86       433.537 DT     0100 Rx 8  01 23 45 67 89 AB CD EF 
     87       440.440 DT     0101 Tx 8  FE DC BA 98 76 54 32 10 
     88       443.574 DT     0100 Rx 8  01 23 45 67 89 AB CD EF 
     89       450.448 DT     0101 Tx 8  FE DC BA 98 76 54 32 10 
     90       453.598 DT     0100 Rx 8  01 23 45 67 89 AB CD EF 
     91       460.433 DT     0101 Tx 8  FE DC BA 98 76 54 32 10 
     92       463.594 DT     0100 Rx 8  01 23 45 67 89 AB CD EF 
     93       470.446 DT     0101 Tx 8  FE DC BA 98 76 54 32 10 
     94       473.611 DT     0100 Rx 8  01 23 45 67 89 AB CD EF 
     95       480.426 DT     0101 Tx 8  FE DC BA 98 76 54 32 10 
     96       483.571 DT     0100 Rx 8  01 23 45 67 89 AB CD EF 
     97       490.464 DT     0101 Tx 8  FE DC BA 98 76 54 32 10 
     98       493.631 DT     0100 Rx 8  01 23 45 67 89 AB CD EF 
     99       500.441 DT     0101 Tx 8  FE DC BA 98 76 54 32 10 
    100       503.619 DT     0100 Rx 8  01 23 45 67 89 AB CD EF 
    101       510.439 DT     0101 Tx 8  FE DC BA 98 76 54 32 10 
    102       513.569 DT     0100 Rx 8  01 23 45 67 89 AB CD EF 
    103       520.439 DT     0101 Tx 8  FE DC BA 98 76 54 32 10 
    104       523.537 DT     0100 Rx 8  01 23 45 67 89 AB CD EF 
    105       530.433 DT     0101 Tx 8  FE DC BA 98 76 54 32 10 
    106       533.563 DT     0100 Rx 8  01 23 45 67 89 AB CD EF 
    107       540.430 DT     0101 Tx 8  FE DC BA 98 76 54 32 10 
    108       543.587 DT     0100 Rx 8  01 23 45 67 89 AB CD EF 
    109       550.450 DT     0101 Tx 8  FE DC BA 98 76 54 32 10 
    110       553.585 DT     0100 Rx 8  01 23 45 67 89 AB CD EF 
    111       560.427 DT     0101 Tx 8  FE DC BA 98 76 54 32 10 
    112       563.607 DT     0100 Rx 8  01 23 45 67 89 AB CD EF 
    113       570.433 DT     0101 Tx 8  FE DC BA 98 76 54 32 10 
    114       573.603 DT     0100 Rx 8  01 23 45 67 89 AB CD EF 
    115       580.458 DT     0101 Tx 8  FE DC BA 98 76 54 32 10 
    116       583.573 DT     0100 Rx 8  01 23 45 67 89 AB CD EF 
    117       590.436 DT     0101 Tx 8  FE DC BA 98 76 54 32 10 
    118       593.569 DT     0100 Rx 8  01 23 45 67 89 AB CD EF 
    119       600.503 DT     0101 Tx 8  FE DC BA 98 76 54 32 10 
    120       603.568 DT     0100 Rx 8  01 23 45 67 89 AB CD EF 
    121       610.427 DT     0101 Tx 8  FE DC BA 98 76 54 32 10 
    122       613.577 DT     0100 Rx 8  01 23 45 67 89 AB CD EF 
    123       620.423 DT     0101 Tx 8  FE DC BA 98 76 54 32 10 
    124       623.595 DT     0100 Rx 8  01 23 45 67 89 AB CD EF 
    125       630.452 DT     0101 Tx 8  FE DC BA 98 76 54 32 10 
    126       633.563 DT     0100 Rx 8  01 23 45 67 89 AB CD EF 
    127       640.441 DT     0101 Tx 8  FE DC BA 98 76 54 32 10 
    128       643.563 DT     0100 Rx 8  01 23 45 67 89 AB CD EF 
    129       650.425 DT     0101 Tx 8  FE DC BA 98 76 54 32 10 
    130       653.577 DT     0100 Rx 8  01 23 45 67 89 AB CD EF 
    131       660.446 DT     0101 Tx 8  FE DC BA 98 76 54 32 10 
    132       663.557 DT     0100 Rx 8  01 23 45 67 89 AB CD EF 
    133       670.423 DT     0101 Tx 8  FE DC BA 98 76 54 32 10 
    134       673.599 DT     0100 Rx 8  01 23 45 67 89 AB CD EF 
    135       680.431 DT     0101 Tx 8  FE DC BA 98 76 54 32 10 
    136       683.605 DT     0100 Rx 8  01 23 45 67 89 AB CD EF 
    137       690.437 DT     0101 Tx 8  FE DC BA 98 76 54 32 10 
    138       693.591 DT     0100 Rx 8  01 23 45 67 89 AB CD EF 
    139       700.429 DT     0101 Tx 8  FE DC BA 98 76 54 32 10 
    140       703.593 DT     0100 Rx 8  01 23 45 67 89 AB CD EF 
    141       710.426 DT     0101 Tx 8  FE DC BA 98 76 54 32 10 
    142       713.609 DT     0100 Rx 8  01 23 45 67 89 AB CD EF 
    143       720.438 DT     0101 Tx 8  FE DC BA 98 76 54 32 10 
    144       723.577 DT     0100 Rx 8  01 23 45 67 89 AB CD EF 
    145       730.427 DT     0101 Tx 8  FE DC BA 98 76 54 32 10 
    146       733.580 DT     0100 Rx 8  01 23 45 67 89 AB CD EF 
    147       740.448 DT     0101 Tx 8  FE DC BA 98 76 54 32 10 
    148       743.600 DT     0100 Rx 8  01 23 45 67 89 AB CD EF 
    149       750.455 DT     0101 Tx 8  FE DC BA 98 76 54 32 10 
    150       753.602 DT     0100 Rx 8  01 23 45 67 89 AB CD EF 
    151       760.446 DT     0101 Tx 8  FE DC BA 98 76 54 32 10 
    152       763.576 DT     0100 Rx 8  01 23 45 67 89 AB CD EF 
    153       770.428 DT     0101 Tx 8  FE DC BA 98 76 54 32 10 
    154       773.601 DT     0100 Rx 8  01 23 45 67 89 AB CD EF 
    155       780.427 DT     0101 Tx 8  FE DC BA 98 76 54 32 10 
    156       784.639 DT     0100 Rx 8  01 23 45 67 89 AB CD EF 
    157       790.487 DT     0101 Tx 8  FE DC BA 98 76 54 32 10 
    158       793.759 DT     0100 Rx 8  01 23 45 67 89 AB CD EF 
    159       800.443 DT     0101 Tx 8  FE DC BA 98 76 54 32 10 
    160       803.583 DT     0100 Rx 8  01 23 45 67 89 AB CD EF 
    161       809.737 DT     0101 Tx 8  FE DC BA 98 76 54 32 10 
    162       814.873 DT     0100 Rx 8  01 23 45 67 89 AB CD EF 
    163       820.775 DT     0101 Tx 8  FE DC BA 98 76 54 32 10 
    164       823.573 DT     0100 Rx 8  01 23 45 67 89 AB CD EF 
    165       829.762 DT     0101 Tx 8  FE DC BA 98 76 54 32 10 
    166       833.585 DT     0100 Rx 8  01 23 45 67 89 AB CD EF 
    167       840.425 DT     0101 Tx 8  FE DC BA 98 76 54 32 10 
    168       843.937 DT     0100 Rx 8  01 23 45 67 89 AB CD EF 
    169       849.731 DT     0101 Tx 8  FE DC BA 98 76 54 32 10 
    170       853.875 DT     0100 Rx 8  01 23 45 67 89 AB CD EF 
    171       860.429 DT     0101 Tx 8  FE DC BA 98 76 54 32 10 
    172       863.947 DT     0100 Rx 8  01 23 45 67 89 AB CD EF 
    173       868.884 DT     0001 Rx 8  00 00 34 56 DE AD BE EF 
    174       870.752 DT     0101 Tx 8  FE DC BA 98 76 54 32 10 
    175       873.560 DT     0100 Rx 8  01 23 45 67 89 AB CD EF 
    176       880.430 DT     0101 Tx 8  FE DC BA 98 76 54 32 10 
    177       883.578 DT     0100 Rx 8  01 23 45 67 89 AB CD EF 
    178       890.459 DT     0101 Tx 8  FE DC BA 98 76 54 32 10 
    179       890.876 DT     0001 Rx 8  01 01 34 56 DE AD BE EF 
    180       893.582 DT     0100 Rx 8  01 23 45 67 89 AB CD EF 
    181       899.762 DT     0101 Tx 8  FE DC BA 98 76 54 32 10 
    182       903.890 DT     0100 Rx 8  01 23 45 67 89 AB CD EF 
    183       910.711 DT     0101 Tx 8  FE DC BA 98 76 54 32 10 
    184       912.875 DT     0001 Rx 8  02 01 34 56 DE AD BE EF 
    185       913.574 DT     0100 Rx 8  01 23 45 67 89 AB CD EF 
    186       920.508 DT     0101 Tx 8  FE DC BA 98 76 54 32 10 
    187       923.582 DT     0100 Rx 8  01 23 45 67 89 AB CD EF 
    188       930.420 DT     0101 Tx 8  FE DC BA 98 76 54 32 10 
    189       933.958 DT     0100 Rx 8  01 23 45 67 89 AB CD EF 
    190       934.877 DT     0001 Rx 8  03 01 34 56 DE AD BE EF 
    191       940.504 DT     0101 Tx 8  FE DC BA 98 76 54 32 10 
    192       943.799 DT     0100 Rx 8  01 23 45 67 89 AB CD EF 
    193       950.667 DT     0101 Tx 8  FE DC BA 98 76 54 32 10 
    194       953.807 DT     0100 Rx 8  01 23 45 67 89 AB CD EF 
    195       959.745 DT     0101 Tx 8  FE DC BA 98 76 54 32 10 
    196       958.877 DT     0001 Rx 8  04 01 34 56 DE AD BE EF 
    197       964.067 DT     0100 Rx 8  01 23 45 67 89 AB CD EF 
    198       969.968 DT     0101 Tx 8  FE DC BA 98 76 54 32 10 
    199       973.796 DT     0100 Rx 8  01 23 45 67 89 AB CD EF 
    200       980.651 DT     0101 Tx 8  FE DC BA 98 76 54 32 10 
    201       981.017 DT     0001 Rx 8  05 02 34 56 DE AD BE EF 
    202       983.762 DT     0100 Rx 8  01 23 45 67 89 AB CD EF 
    203       990.664 DT     0101 Tx 8  FE DC BA 98 76 54 32 10 
    204       994.098 DT     0100 Rx 8  01 23 45 67 89 AB CD EF 
    205      1000.942 DT     0101 Tx 8  FE DC BA 98 76 54 32 10 
    206      1002.880 DT     0001 Rx 8  06 02 34 56 DE AD BE EF 
    207      1003.816 DT     0100 Rx 8  01 23 45 67 89 AB CD EF 
    208      1009.972 DT     0101 Tx 8  FE DC BA 98 76 54 32 10 
    209      1014.084 DT     0100 Rx 8  01 23 45 67 89 AB CD EF 
    210      1020.689 DT     0101 Tx 8  FE DC BA 98 76 54 32 10 
    211      1023.954 DT     0100 Rx 8  01 23 45 67 89 AB CD EF 
    212      1025.879 DT     0001 Rx 8  07 02 34 56 DE AD BE EF 
    213      1030.837 DT     0101 Tx 8  FE DC BA 98 76 54 32 10 
    214      1034.157 DT     0100 Rx 8  01 23 45 67 89 AB CD EF 
    215      1040.687 DT     0101 Tx 8  FE DC BA 98 76 54 32 10 
    216      1044.101 DT     0100 Rx 8  01 23 45 67 89 AB CD EF 
    217      1049.853 DT     0101 Tx 8  FE DC BA 98 76 54 32 10 
    218      1048.868 DT     0001 Rx 8  08 02 34 56 DE AD BE EF 
    219      1054.132 DT     0100 Rx 8  01 23 45 67 89 AB CD EF 
    220      1059.923 DT     0101 Tx 8  FE DC BA 98 76 54 32 10 
    221      1063.796 DT     0100 Rx 8  01 23 45 67 89 AB CD EF 
    222      1070.663 DT     0101 Tx 8  FE DC BA 98 76 54 32 10 
    223      1071.022 DT     0001 Rx 8  09 03 34 56 DE AD BE EF 
    224      1073.868 DT     0100 Rx 8  01 23 45 67 89 AB CD EF 
    225      1079.747 DT     0101 Tx 8  FE DC BA 98 76 54 32 10 
    226      1083.820 DT     0100 Rx 8  01 23 45 67 89 AB CD EF 
    227      1090.688 DT     0101 Tx 8  FE DC BA 98 76 54 32 10 
    228      1092.869 DT     0001 Rx 8  0A 03 34 56 DE AD BE EF 
    229      1093.813 DT     0100 Rx 8  01 23 45 67 89 AB CD EF 
    230      1100.691 DT     0101 Tx 8  FE DC BA 98 76 54 32 10 
    231      1103.841 DT     0100 Rx 8  01 23 45 67 89 AB CD EF 
    232      1110.003 DT     0101 Tx 8  FE DC BA 98 76 54 32 10 
    233      1113.811 DT     0100 Rx 8  01 23 45 67 89 AB CD EF 
    234      1114.877 DT     0001 Rx 8  0B 03 34 56 DE AD BE EF 
    235      1120.674 DT     0101 Tx 8  FE DC BA 98 76 54 32 10 
    236      1123.837 DT     0100 Rx 8  01 23 45 67 89 AB CD EF 
    237      1130.657 DT     0101 Tx 8  FE DC BA 98 76 54 32 10 
    238      1134.062 DT     0100 Rx 8  01 23 45 67 89 AB CD EF 
    239      1136.875 DT     0001 Rx 8  0C 03 34 56 DE AD BE EF 
    240      1139.831 DT     0101 Tx 8  FE DC BA 98 76 54 32 10 
    241      1144.099 DT     0100 Rx 8  01 23 45 67 89 AB CD EF 
    242      1150.981 DT     0101 Tx 8  FE DC BA 98 76 54 32 10 
    243      1153.813 DT     0100 Rx 8  01 23 45 67 89 AB CD EF 
    244      1159.860 DT     0001 Rx 8  0D 04 34 56 DE AD BE EF 
    245      1160.668 DT     0101 Tx 8  FE DC BA 98 76 54 32 10 
    246      1163.792 DT     0100 Rx 8  01 23 45 67 89 AB CD EF 
    247      1170.749 DT     0101 Tx 8  FE DC BA 98 76 54 32 10 
    248      1173.830 DT     0100 Rx 8  01 23 45 67 89 AB CD EF 
    249      1179.941 DT     0101 Tx 8  FE DC BA 98 76 54 32 10 
    250      1182.863 DT     0001 Rx 8  0E 04 34 56 DE AD BE EF 
    251      1183.783 DT     0100 Rx 8  01 23 45 67 89 AB CD EF 
    252      1190.656 DT     0101 Tx 8  FE DC BA 98 76 54 32 10 
    253      1193.823 DT     0100 Rx 8  01 23 45 67 89 AB CD EF 
    254      1199.983 DT     0101 Tx 8  FE DC BA 98 76 54 32 10 
    255      1204.083 DT     0100 Rx 8  01 23 45 67 89 AB CD EF 
    256      1204.869 DT     0001 Rx 8  0F 04 34 56 DE AD BE EF 
    257      1210.666 DT     0101 Tx 8  FE DC BA 98 76 54 32 10 
    258      1213.841 DT     0100 Rx 8  01 23 45 67 89 AB CD EF 
    259      1219.917 DT     0101 Tx 8  FE DC BA 98 76 54 32 10 
    260      1223.889 DT     0100 Rx 8  01 23 45 67 89 AB CD EF 
    261      1229.777 DT     0101 Tx 8  FE DC BA 98 76 54 32 10 
    262      1228.854 DT     0001 Rx 8  10 04 34 56 DE AD BE EF 
    263      1233.910 DT     0100 Rx 8  01 23 45 67 89 AB CD EF 
    264      1240.711 DT     0101 Tx 8  FE DC BA 98 76 54 32 10 
    265      1243.874 DT     0100 Rx 8  01 23 45 67 89 AB CD EF 
    266      1251.010 DT     0101 Tx 8  FE DC BA 98 76 54 32 10 
    267      1251.866 DT     0001 Rx 8  11 05 34 56 DE AD BE EF 
    268      1253.852 DT     0100 Rx 8  01 23 45 67 89 AB CD EF 
    269      1260.691 DT     0101 Tx 8  FE DC BA 98 76 54 32 10 
    270      1263.813 DT     0100 Rx 8  01 23 45 67 89 AB CD EF 
    271      1270.747 DT     0101 Tx 8  FE DC BA 98 76 54 32 10 
    272      1274.095 DT     0100 Rx 8  01 23 45 67 89 AB CD EF 
    273      1274.859 DT     0001 Rx 8  12 05 34 56 DE AD BE EF 
    274      1279.993 DT     0101 Tx 8  FE DC BA 98 76 54 32 10 
    275      1284.153 DT     0100 Rx 8  01 23 45 67 89 AB CD EF 
    276      1290.656 DT     0101 Tx 8  FE DC BA 98 76 54 32 10 
    277      1293.831 DT     0100 Rx 8  01 23 45 67 89 AB CD EF 
    278      1297.856 DT     0001 Rx 8  13 05 34 56 DE AD BE EF 
    279      1300.693 DT     0101 Tx 8  FE DC BA 98 76 54 32 10 
    280      1303.825 DT     0100 Rx 8  01 23 45 67 89 AB CD EF 
    281      1309.782 DT     0101 Tx 8  FE DC BA 98 76 54 32 10 
    282      1314.153 DT     0100 Rx 8  01 23 45 67 89 AB CD EF 
    283      1319.975 DT     0101 Tx 8  FE DC BA 98 76 54 32 10 
    284      1320.860 DT     0001 Rx 8  14 05 34 56 DE AD BE EF 
    285      1324.092 DT     0100 Rx 8  01 23 45 67 89 AB CD EF 
    286      1329.859 DT     0101 Tx 8  FE DC BA 98 76 54 32 10 
    287      1334.092 DT     0100 Rx 8  01 23 45 67 89 AB CD EF 
    288      1340.921 DT     0101 Tx 8  FE DC BA 98 76 54 32 10 
    289      1343.857 DT     0001 Rx 8  15 05 34 56 DE AD BE EF 
    290      1344.087 DT     0100 Rx 8  01 23 45 67 89 AB CD EF 
    291      1350.669 DT     0101 Tx 8  FE DC BA 98 76 54 32 10 
    292      1353.811 DT     0100 Rx 8  01 23 45 67 89 AB CD EF 
    293      1359.996 DT     0101 Tx 8  FE DC BA 98 76 54 32 10 
    294      1364.157 DT     0100 Rx 8  01 23 45 67 89 AB CD EF 
    295      1366.856 DT     0001 Rx 8  16 06 34 56 DE AD BE EF 
    296      1369.971 DT     0101 Tx 8  FE DC BA 98 76 54 32 10 
    297      1373.818 DT     0100 Rx 8  01 23 45 67 89 AB CD EF 
    298      1380.686 DT     0101 Tx 8  FE DC BA 98 76 54 32 10 
    299      1383.808 DT     0100 Rx 8  01 23 45 67 89 AB CD EF 
    300      1389.729 DT     0001 Rx 8  17 07 34 56 DE AD BE EF 
    301      1390.808 DT     0101 Tx 8  FE DC BA 98 76 54 32 10 
    302      1394.790 DT     0100 Rx 8  01 23 45 67 89 AB CD EF 
    303      1400.111 DT     0101 Tx 8  FE DC BA 98 76 54 32 10 
    304      1404.466 DT     0100 Rx 8  01 23 45 67 89 AB CD EF 
    305      1410.373 DT     0101 Tx 8  FE DC BA 98 76 54 32 10 
    306      1412.733 DT     0001 Rx 8  18 07 34 56 DE AD BE EF 
    307      1414.161 DT     0100 Rx 8  01 23 45 67 89 AB CD EF 
    308      1420.028 DT     0101 Tx 8  FE DC BA 98 76 54 32 10 
    309      1424.261 DT     0100 Rx 8  01 23 45 67 89 AB CD EF 
    310      1430.343 DT     0101 Tx 8  FE DC BA 98 76 54 32 10 
    311      1433.637 DT     0100 Rx 8  01 23 45 67 89 AB CD EF 
    312      1435.948 DT     0001 Rx 8  19 07 34 56 DE AD BE EF 
    313      1440.058 DT     0101 Tx 8  FE DC BA 98 76 54 32 10 
    314      1444.284 DT     0100 Rx 8  01 23 45 67 89 AB CD EF 
    315      1450.217 DT     0101 Tx 8  FE DC BA 98 76 54 32 10 
    316      1453.584 DT     0100 Rx 8  01 23 45 67 89 AB CD EF 
    317      1457.828 DT     0001 Rx 8  1A 07 34 56 DE AD BE EF 
    318      1460.314 DT     0101 Tx 8  FE DC BA 98 76 54 32 10 
    319      1464.596 DT     0100 Rx 8  01 23 45 67 89 AB CD EF 
    320      1470.367 DT     0101 Tx 8  FE DC BA 98 76 54 32 10 
    321      1474.288 DT     0100 Rx 8  01 23 45 67 89 AB CD EF 
    322      1480.290 DT     0101 Tx 8  FE DC BA 98 76 54 32 10 
    323      1480.828 DT     0001 Rx 8  1B 08 34 56 DE AD BE EF 
    324      1484.554 DT     0100 Rx 8  01 23 45 67 89 AB CD EF 
    325      1490.052 DT     0101 Tx 8  FE DC BA 98 76 54 32 10 
    326      1494.614 DT     0100 Rx 8  01 23 45 67 89 AB CD EF 
    327      1500.347 DT     0101 Tx 8  FE DC BA 98 76 54 32 10 
    328      1502.827 DT     0001 Rx 8  1C 08 34 56 DE AD BE EF 
    329      1504.361 DT     0100 Rx 8  01 23 45 67 89 AB CD EF 
    330      1510.114 DT     0101 Tx 8  FE DC BA 98 76 54 32 10 
    331      1513.579 DT     0100 Rx 8  01 23 45 67 89 AB CD EF 
    332      1520.130 DT     0101 Tx 8  FE DC BA 98 76 54 32 10 
    333      1524.308 DT     0100 Rx 8  01 23 45 67 89 AB CD EF 
    334      1524.954 DT     0001 Rx 8  1D 08 34 56 DE AD BE EF 
    335      1530.300 DT     0101 Tx 8  FE DC BA 98 76 54 32 10 
    336      1533.524 DT     0100 Rx 8  01 23 45 67 89 AB CD EF 
    337      1540.059 DT     0101 Tx 8  FE DC BA 98 76 54 32 10 
    338      1544.310 DT     0100 Rx 8  01 23 45 67 89 AB CD EF 
    339      1548.950 DT     0001 Rx 8  1E 08 34 56 DE AD BE EF 
    340      1550.050 DT     0101 Tx 8  FE DC BA 98 76 54 32 10 
    341      1554.572 DT     0100 Rx 8  01 23 45 67 89 AB CD EF 
    342      1560.300 DT     0101 Tx 8  FE DC BA 98 76 54 32 10 
    343      1563.502 DT     0100 Rx 8  01 23 45 67 89 AB CD EF 
    344      1570.317 DT     0101 Tx 8  FE DC BA 98 76 54 32 10 
    345      1570.832 DT     0001 Rx 8  1F 09 34 56 DE AD BE EF 
    346      1574.578 DT     0100 Rx 8  01 23 45 67 89 AB CD EF 
    347      1580.301 DT     0101 Tx 8  FE DC BA 98 76 54 32 10 
    348      1584.264 DT     0100 Rx 8  01 23 45 67 89 AB CD EF 
    349      1590.302 DT     0101 Tx 8  FE DC BA 98 76 54 32 10 
    350      1592.817 DT     0001 Rx 8  20 09 34 56 DE AD BE EF 
    351      1593.567 DT     0100 Rx 8  01 23 45 67 89 AB CD EF 
    352      1600.028 DT     0101 Tx 8  FE DC BA 98 76 54 32 10 
    353      1603.637 DT     0100 Rx 8  01 23 45 67 89 AB CD EF 
    354      1610.054 DT     0101 Tx 8  FE DC BA 98 76 54 32 10 
    355      1613.549 DT     0100 Rx 8  01 23 45 67 89 AB CD EF 
    356      1614.816 DT     0001 Rx 8  21 09 34 56 DE AD BE EF 
    357      1620.321 DT     0101 Tx 8  FE DC BA 98 76 54 32 10 
    358      1623.570 DT     0100 Rx 8  01 23 45 67 89 AB CD EF 
    359      1630.047 DT     0101 Tx 8  FE DC BA 98 76 54 32 10 
    360      1634.256 DT     0100 Rx 8  01 23 45 67 89 AB CD EF 
    361      1638.822 DT     0001 Rx 8  22 09 34 56 DE AD BE EF 
    362      1640.345 DT     0101 Tx 8  FE DC BA 98 76 54 32 10 
    363      1644.590 DT     0100 Rx 8  01 23 45 67 89 AB CD EF 
    364      1650.360 DT     0101 Tx 8  FE DC BA 98 76 54 32 10 
    365      1653.592 DT     0100 Rx 8  01 23 45 67 89 AB CD EF 
    366      1660.069 DT     0101 Tx 8  FE DC BA 98 76 54 32 10 
    367      1664.579 DT     0100 Rx 8  01 23 45 67 89 AB CD EF 
    368      1670.322 DT     0101 Tx 8  FE DC BA 98 76 54 32 10 
    369      1674.333 DT     0100 Rx 8  01 23 45 67 89 AB CD EF 
    370      1680.135 DT     0101 Tx 8  FE DC BA 98 76 54 32 10 
    371      1683.661 DT     0100 Rx 8  01 23 45 67 89 AB CD EF 
    372      1690.294 DT     0101 Tx 8  FE DC BA 98 76 54 32 10 
    373      1694.441 DT     0100 Rx 8  01 23 45 67 89 AB CD EF 
    374      1700.102 DT     0101 Tx 8  FE DC BA 98 76 54 32 10 
    375      1703.601 DT     0100 Rx 8  01 23 45 67 89 AB CD EF 
    376      1710.303 DT     0101 Tx 8  FE DC BA 98 76 54 32 10 
    377      1714.285 DT     0100 Rx 8  01 23 45 67 89 AB CD EF 
    378      1720.031 DT     0101 Tx 8  FE DC BA 98 76 54 32 10 
    379      1724.285 DT     0100 Rx 8  01 23 45 67 89 AB CD EF 
    380      1730.028 DT     0101 Tx 8  FE DC BA 98 76 54 32 10 
    381      1734.291 DT     0100 Rx 8  01 23 45 67 89 AB CD EF 
    382      1740.053 DT     0101 Tx 8  FE DC BA 98 76 54 32 10 
    383      1744.289 DT     0100 Rx 8  01 23 45 67 89 AB CD EF 
    384      1750.023 DT     0101 Tx 8  FE DC BA 98 76 54 32 10 
    385      1754.285 DT     0100 Rx 8  01 23 45 67 89 AB CD EF 
    386      1760.034 DT     0101 Tx 8  FE DC BA 98 76 54 32 10 
    387      1764.329 DT     0100 Rx 8  01 23 45 67 89 AB CD EF 
    388      1770.048 DT     0101 Tx 8  FE DC BA 98 76 54 32 10 
    389      1774.306 DT     0100 Rx 8  01 23 45 67 89 AB CD EF 
    390      1780.032 DT     0101 Tx 8  FE DC BA 98 76 54 32 10 
    391      1784.328 DT     0100 Rx 8  01 23 45 67 89 AB CD EF 
    392      1790.035 DT     0101 Tx 8  FE DC BA 98 76 54 32 10 
    393      1794.277 DT     0100 Rx 8  01 23 45 67 89 AB CD EF 
    394      1800.055 DT     0101 Tx 8  FE DC BA 98 76 54 32 10 
    395      1804.307 DT     0100 Rx 8  01 23 45 67 89 AB CD EF 
    396      1810.037 DT     0101 Tx 8  FE DC BA 98 76 54 32 10 
    397      1814.305 DT     0100 Rx 8  01 23 45 67 89 AB CD EF 
    398      1820.057 DT     0101 Tx 8  FE DC BA 98 76 54 32 10 
    399      1824.309 DT     0100 Rx 8  01 23 45 67 89 AB CD EF 
    400      1830.045 DT     0101 Tx 8  FE DC BA 98 76 54 32 10 
    401      1834.269 DT     0100 Rx 8  01 23 45 67 89 AB CD EF 
    402      1840.058 DT     0101 Tx 8  FE DC BA 98 76 54 32 10 
    403      1844.285 DT     0100 Rx 8  01 23 45 67 89 AB CD EF 
    404      1850.034 DT     0101 Tx 8  FE DC BA 98 76 54 32 10 
    405      1854.293 DT     0100 Rx 8  01 23 45 67 89 AB CD EF 
    406      1860.055 DT     0101 Tx 8  FE DC BA 98 76 54 32 10 
    407      1864.273 DT     0100 Rx 8  01 23 45 67 89 AB CD EF 
    408      1870.037 DT     0101 Tx 8  FE DC BA 98 76 54 32 10 
    409      1870.937 DT     0001 Rx 8  00 00 34 56 DE AD BE EF 
    410      1874.321 DT     0100 Rx 8  01 23 45 67 89 AB CD EF 
    411      1880.026 DT     0101 Tx 8  FE DC BA 98 76 54 32 10 
    412      1884.289 DT     0100 Rx 8  01 23 45 67 89 AB CD EF 
    413      1890.067 DT     0101 Tx 8  FE DC BA 98 76 54 32 10 
    414      1894.263 DT     0100 Rx 8  01 23 45 67 89 AB CD EF 
    415      1900.041 DT     0101 Tx 8  FE DC BA 98 76 54 32 10 
    416      1904.263 DT     0100 Rx 8  01 23 45 67 89 AB CD EF 
    417      1910.048 DT     0101 Tx 8  FE DC BA 98 76 54 32 10 
    418      1912.932 DT     0001 Rx 8  23 00 34 56 DE AD BE EF 
    419      1914.296 DT     0100 Rx 8  01 23 45 67 89 AB CD EF 
    420      1920.053 DT     0101 Tx 8  FE DC BA 98 76 54 32 10 
    421      1924.305 DT     0100 Rx 8  01 23 45 67 89 AB CD EF 
    422      1930.053 DT     0101 Tx 8  FE DC BA 98 76 54 32 10 
    423      1934.285 DT     0100 Rx 8  01 23 45 67 89 AB CD EF 
    424      1934.937 DT     0001 Rx 8  24 00 34 56 DE AD BE EF 
    425      1940.032 DT     0101 Tx 8  FE DC BA 98 76 54 32 10 
    426      1944.321 DT     0100 Rx 8  01 23 45 67 89 AB CD EF 
    427      1950.090 DT     0101 Tx 8  FE DC BA 98 76 54 32 10 
    428      1954.271 DT     0100 Rx 8  01 23 45 67 89 AB CD EF 
    429      1956.800 DT     0001 Rx 8  25 00 34 56 DE AD BE EF 
    430      1960.045 DT     0101 Tx 8  FE DC BA 98 76 54 32 10 
    431      1960.808 DT     0001 Rx 8  04 01 34 56 DE AD BE EF 
    432      1964.262 DT     0100 Rx 8  01 23 45 67 89 AB CD EF 
    433      1970.047 DT     0101 Tx 8  FE DC BA 98 76 54 32 10 
    434      1974.314 DT     0100 Rx 8  01 23 45 67 89 AB CD EF 
    435      1978.810 DT     0001 Rx 8  26 01 34 56 DE AD BE EF 
    436      1980.039 DT     0101 Tx 8  FE DC BA 98 76 54 32 10 
    437      1984.302 DT     0100 Rx 8  01 23 45 67 89 AB CD EF 
    438      1990.068 DT     0101 Tx 8  FE DC BA 98 76 54 32 10 
    439      1994.318 DT     0100 Rx 8  01 23 45 67 89 AB CD EF 
    440      2000.058 DT     0101 Tx 8  FE DC BA 98 76 54 32 10 
    441      2004.285 DT     0100 Rx 8  01 23 45 67 89 AB CD EF 
    442      2010.034 DT     0101 Tx 8  FE DC BA 98 76 54 32 10 
    443      2014.301 DT     0100 Rx 8  01 23 45 67 89 AB CD EF 
    444      2020.032 DT     0101 Tx 8  FE DC BA 98 76 54 32 10 
    445      2024.259 DT     0100 Rx 8  01 23 45 67 89 AB CD EF 
    446      2030.024 DT     0101 Tx 8  FE DC BA 98 76 54 32 10 
    447      2034.295 DT     0100 Rx 8  01 23 45 67 89 AB CD EF 
    448      2040.039 DT     0101 Tx 8  FE DC BA 98 76 54 32 10 
    449      2044.307 DT     0100 Rx 8  01 23 45 67 89 AB CD EF 
    450      2050.067 DT     0101 Tx 8  FE DC BA 98 76 54 32 10 
    451      2050.811 DT     0001 Rx 8  08 02 34 56 DE AD BE EF 
    452      2054.306 DT     0100 Rx 8  01 23 45 67 89 AB CD EF 
    453      2060.049 DT     0101 Tx 8  FE DC BA 98 76 54 32 10 
    454      2064.322 DT     0100 Rx 8  01 23 45 67 89 AB CD EF 
    455      2070.696 DT     0101 Tx 8  FE DC BA 98 76 54 32 10 
    456      2074.268 DT     0100 Rx 8  01 23 45 67 89 AB CD EF 
    457      2080.173 DT     0101 Tx 8  FE DC BA 98 76 54 32 10 
    458      2084.406 DT     0100 Rx 8  01 23 45 67 89 AB CD EF 
    459      2090.170 DT     0101 Tx 8  FE DC BA 98 76 54 32 10 
    460      2094.380 DT     0100 Rx 8  01 23 45 67 89 AB CD EF 
    461      2100.173 DT     0101 Tx 8  FE DC BA 98 76 54 32 10 
    462      2104.382 DT     0100 Rx 8  01 23 45 67 89 AB CD EF 
    463      2110.166 DT     0101 Tx 8  FE DC BA 98 76 54 32 10 
    464      2114.412 DT     0100 Rx 8  01 23 45 67 89 AB CD EF 
    465      2120.165 DT     0101 Tx 8  FE DC BA 98 76 54 32 10 
    466      2124.382 DT     0100 Rx 8  01 23 45 67 89 AB CD EF 
    467      2130.167 DT     0101 Tx 8  FE DC BA 98 76 54 32 10 
    468      2134.390 DT     0100 Rx 8  01 23 45 67 89 AB CD EF 
    469      2138.925 DT     0001 Rx 8  0C 02 34 56 DE AD BE EF 
    470      2140.173 DT     0101 Tx 8  FE DC BA 98 76 54 32 10 
    471      2144.405 DT     0100 Rx 8  01 23 45 67 89 AB CD EF 
    472      2150.186 DT     0101 Tx 8  FE DC BA 98 76 54 32 10 
    473      2154.401 DT     0100 Rx 8  01 23 45 67 89 AB CD EF 
    474      2160.199 DT     0101 Tx 8  FE DC BA 98 76 54 32 10 
    475      2164.409 DT     0100 Rx 8  01 23 45 67 89 AB CD EF 
    476      2170.170 DT     0101 Tx 8  FE DC BA 98 76 54 32 10 
    477      2174.435 DT     0100 Rx 8  01 23 45 67 89 AB CD EF 
    478      2180.187 DT     0101 Tx 8  FE DC BA 98 76 54 32 10 
    479      2184.394 DT     0100 Rx 8  01 23 45 67 89 AB CD EF 
    480      2190.168 DT     0101 Tx 8  FE DC BA 98 76 54 32 10 
    481      2194.390 DT     0100 Rx 8  01 23 45 67 89 AB CD EF 
    482      2200.176 DT     0101 Tx 8  FE DC BA 98 76 54 32 10 
    483      2204.426 DT     0100 Rx 8  01 23 45 67 89 AB CD EF 
    484      2210.167 DT     0101 Tx 8  FE DC BA 98 76 54 32 10 
    485      2214.416 DT     0100 Rx 8  01 23 45 67 89 AB CD EF 
    486      2220.165 DT     0101 Tx 8  FE DC BA 98 76 54 32 10 
    487      2224.416 DT     0100 Rx 8  01 23 45 67 89 AB CD EF 
    488      2230.171 DT     0101 Tx 8  FE DC BA 98 76 54 32 10 
    489      2230.806 DT     0001 Rx 8  10 03 34 56 DE AD BE EF 
    490      2234.442 DT     0100 Rx 8  01 23 45 67 89 AB CD EF 
    491      2240.179 DT     0101 Tx 8  FE DC BA 98 76 54 32 10 
    492      2244.422 DT     0100 Rx 8  01 23 45 67 89 AB CD EF 
    493      2250.189 DT     0101 Tx 8  FE DC BA 98 76 54 32 10 
    494      2252.799 DT     0001 Rx 8  27 03 34 56 DE AD BE EF 
    495      2254.415 DT     0100 Rx 8  01 23 45 67 89 AB CD EF 
    496      2260.167 DT     0101 Tx 8  FE DC BA 98 76 54 32 10 
    497      2264.425 DT     0100 Rx 8  01 23 45 67 89 AB CD EF 
    498      2270.195 DT     0101 Tx 8  FE DC BA 98 76 54 32 10 
    499      2274.417 DT     0100 Rx 8  01 23 45 67 89 AB CD EF 
    500      2274.801 DT     0001 Rx 8  28 03 34 56 DE AD BE EF 
    501      2280.184 DT     0101 Tx 8  FE DC BA 98 76 54 32 10 
    502      2284.419 DT     0100 Rx 8  01 23 45 67 89 AB CD EF 
    503      2290.169 DT     0101 Tx 8  FE DC BA 98 76 54 32 10 
    504      2294.429 DT     0100 Rx 8  01 23 45 67 89 AB CD EF 
    505      2296.919 DT     0001 Rx 8  29 03 34 56 DE AD BE EF 
    506      2300.185 DT     0101 Tx 8  FE DC BA 98 76 54 32 10 
    507      2304.421 DT     0100 Rx 8  01 23 45 67 89 AB CD EF 
    508      2310.158 DT     0101 Tx 8  FE DC BA 98 76 54 32 10 
    509      2314.419 DT     0100 Rx 8  01 23 45 67 89 AB CD EF 
    510      2318.802 DT     0001 Rx 8  2A 04 34 56 DE AD BE EF 
    511      2320.190 DT     0101 Tx 8  FE DC BA 98 76 54 32 10 
    512      2324.415 DT     0100 Rx 8  01 23 45 67 89 AB CD EF 
    513      2330.165 DT     0101 Tx 8  FE DC BA 98 76 54 32 10 
    514      2334.419 DT     0100 Rx 8  01 23 45 67 89 AB CD EF 
    515      2340.169 DT     0101 Tx 8  FE DC BA 98 76 54 32 10 
    516      2340.797 DT     0001 Rx 8  2B 04 34 56 DE AD BE EF 
    517      2344.387 DT     0100 Rx 8  01 23 45 67 89 AB CD EF 
    518      2346.924 DT     0001 Rx 8  15 04 34 56 DE AD BE EF 
    519      2350.195 DT     0101 Tx 8  FE DC BA 98 76 54 32 10 
    520      2354.394 DT     0100 Rx 8  01 23 45 67 89 AB CD EF 
    521      2360.170 DT     0101 Tx 8  FE DC BA 98 76 54 32 10 
    522      2362.803 DT     0001 Rx 8  2C 04 34 56 DE AD BE EF 
    523      2364.409 DT     0100 Rx 8  01 23 45 67 89 AB CD EF 
    524      2367.916 DT     0001 Rx 8  16 04 34 56 DE AD BE EF 
    525      2370.162 DT     0101 Tx 8  FE DC BA 98 76 54 32 10 
    526      2374.414 DT     0100 Rx 8  01 23 45 67 89 AB CD EF 
    527      2380.183 DT     0101 Tx 8  FE DC BA 98 76 54 32 10 
    528      2384.418 DT     0100 Rx 8  01 23 45 67 89 AB CD EF 
    529      2384.916 DT     0001 Rx 8  2D 04 34 56 DE AD BE EF 
    530      2390.164 DT     0101 Tx 8  FE DC BA 98 76 54 32 10 
    531      2394.422 DT     0100 Rx 8  01 23 45 67 89 AB CD EF 
    532      2400.179 DT     0101 Tx 8  FE DC BA 98 76 54 32 10 
    533      2404.466 DT     0100 Rx 8  01 23 45 67 89 AB CD EF 
    534      2407.047 DT     0001 Rx 8  2E 04 34 56 DE AD BE EF 
    535      2410.170 DT     0101 Tx 8  FE DC BA 98 76 54 32 10 
    536      2414.386 DT     0100 Rx 8  01 23 45 67 89 AB CD EF 
    537      2420.164 DT     0101 Tx 8  FE DC BA 98 76 54 32 10 
    538      2424.328 DT     0100 Rx 8  01 23 45 67 89 AB CD EF 
    539      2428.832 DT     0001 Rx 8  2F 04 34 56 DE AD BE EF 
    540      2430.173 DT     0101 Tx 8  FE DC BA 98 76 54 32 10 
    541      2434.326 DT     0100 Rx 8  01 23 45 67 89 AB CD EF 
    542      2440.160 DT     0101 Tx 8  FE DC BA 98 76 54 32 10 
    543      2444.314 DT     0100 Rx 8  01 23 45 67 89 AB CD EF 
    544      2450.189 DT     0101 Tx 8  FE DC BA 98 76 54 32 10 
    545      2450.833 DT     0001 Rx 8  30 05 34 56 DE AD BE EF 
    546      2454.299 DT     0100 Rx 8  01 23 45 67 89 AB CD EF 
    547      2458.832 DT     0001 Rx 8  1A 05 34 56 DE AD BE EF 
    548      2460.174 DT     0101 Tx 8  FE DC BA 98 76 54 32 10 
    549      2464.316 DT     0100 Rx 8  01 23 45 67 89 AB CD EF 
    550      2470.152 DT     0101 Tx 8  FE DC BA 98 76 54 32 10 
    551      2472.699 DT     0001 Rx 8  31 06 34 56 DE AD BE EF 
    552      2474.359 DT     0100 Rx 8  01 23 45 67 89 AB CD EF 
    553      2480.204 DT     0101 Tx 8  FE DC BA 98 76 54 32 10 
    554      2484.321 DT     0100 Rx 8  01 23 45 67 89 AB CD EF 
    555      2490.182 DT     0101 Tx 8  FE DC BA 98 76 54 32 10 
    556      2494.361 DT     0100 Rx 8  01 23 45 67 89 AB CD EF 
    557      2494.813 DT     0001 Rx 8  32 07 34 56 DE AD BE EF 
    558      2500.165 DT     0101 Tx 8  FE DC BA 98 76 54 32 10 
    559      2504.333 DT     0100 Rx 8  01 23 45 67 89 AB CD EF 
    560      2510.185 DT     0101 Tx 8  FE DC BA 98 76 54 32 10 
    561      2514.323 DT     0100 Rx 8  01 23 45 67 89 AB CD EF 
    562      2516.942 DT     0001 Rx 8  33 07 34 56 DE AD BE EF 
    563      2520.172 DT     0101 Tx 8  FE DC BA 98 76 54 32 10 
    564      2523.808 DT     0100 Rx 8  01 23 45 67 89 AB CD EF 
    565      2529.927 DT     0101 Tx 8  FE DC BA 98 76 54 32 10 
    566      2534.064 DT     0100 Rx 8  01 23 45 67 89 AB CD EF 
    567      2538.819 DT     0001 Rx 8  34 07 34 56 DE AD BE EF 
    568      2539.952 DT     0101 Tx 8  FE DC BA 98 76 54 32 10 
    569      2544.056 DT     0100 Rx 8  01 23 45 67 89 AB CD EF 
    570      2549.949 DT     0101 Tx 8  FE DC BA 98 76 54 32 10 
    571      2549.942 DT     0001 Rx 8  1E 08 34 56 DE AD BE EF 
    572      2554.076 DT     0100 Rx 8  01 23 45 67 89 AB CD EF 
    573      2559.940 DT     0101 Tx 8  FE DC BA 98 76 54 32 10 
    574      2560.930 DT     0001 Rx 8  35 08 34 56 DE AD BE EF 
    575      2564.096 DT     0100 Rx 8  01 23 45 67 89 AB CD EF 
    576      2569.922 DT     0101 Tx 8  FE DC BA 98 76 54 32 10 
    577      2574.056 DT     0100 Rx 8  01 23 45 67 89 AB CD EF 
    578      2579.915 DT     0101 Tx 8  FE DC BA 98 76 54 32 10 
    579      2582.930 DT     0001 Rx 8  36 08 34 56 DE AD BE EF 
    580      2584.042 DT     0100 Rx 8  01 23 45 67 89 AB CD EF 
    581      2589.920 DT     0101 Tx 8  FE DC BA 98 76 54 32 10 
    582      2594.040 DT     0100 Rx 8  01 23 45 67 89 AB CD EF 
    583      2599.923 DT     0101 Tx 8  FE DC BA 98 76 54 32 10 
    584      2604.064 DT     0100 Rx 8  01 23 45 67 89 AB CD EF 
    585      2609.916 DT     0101 Tx 8  FE DC BA 98 76 54 32 10 
    586      2614.066 DT     0100 Rx 8  01 23 45 67 89 AB CD EF 
    587      2619.919 DT     0101 Tx 8  FE DC BA 98 76 54 32 10 
    588      2624.078 DT     0100 Rx 8  01 23 45 67 89 AB CD EF 
    589      2629.940 DT     0101 Tx 8  FE DC BA 98 76 54 32 10 
    590      2634.066 DT     0100 Rx 8  01 23 45 67 89 AB CD EF 
    591      2639.921 DT     0101 Tx 8  FE DC BA 98 76 54 32 10 
    592      2640.936 DT     0001 Rx 8  22 09 34 56 DE AD BE EF 
    593      2644.064 DT     0100 Rx 8  01 23 45 67 89 AB CD EF 
    594      2649.916 DT     0101 Tx 8  FE DC BA 98 76 54 32 10 
    595      2654.100 DT     0100 Rx 8  01 23 45 67 89 AB CD EF 
    596      2659.950 DT     0101 Tx 8  FE DC BA 98 76 54 32 10 
    597      2664.104 DT     0100 Rx 8  01 23 45 67 89 AB CD EF 
    598      2669.952 DT     0101 Tx 8  FE DC BA 98 76 54 32 10 
    599      2674.124 DT     0100 Rx 8  01 23 45 67 89 AB CD EF 
    600      2679.976 DT     0101 Tx 8  FE DC BA 98 76 54 32 10 
    601      2684.074 DT     0100 Rx 8  01 23 45 67 89 AB CD EF 
    602      2689.951 DT     0101 Tx 8  FE DC BA 98 76 54 32 10 
    603      2694.076 DT     0100 Rx 8  01 23 45 67 89 AB CD EF 
    604      2699.947 DT     0101 Tx 8  FE DC BA 98 76 54 32 10 
    605      2704.103 DT     0100 Rx 8  01 23 45 67 89 AB CD EF 
    606      2709.933 DT     0101 Tx 8  FE DC BA 98 76 54 32 10 
    607      2714.092 DT     0100 Rx 8  01 23 45 67 89 AB CD EF 
    608      2719.933 DT     0101 Tx 8  FE DC BA 98 76 54 32 10 
    609      2724.076 DT     0100 Rx 8  01 23 45 67 89 AB CD EF 
    610      2729.955 DT     0101 Tx 8  FE DC BA 98 76 54 32 10 
    611      2734.062 DT     0100 Rx 8  01 23 45 67 89 AB CD EF 
    612      2739.937 DT     0101 Tx 8  FE DC BA 98 76 54 32 10 
    613      2744.104 DT     0100 Rx 8  01 23 45 67 89 AB CD EF 
    614      2749.958 DT     0101 Tx 8  FE DC BA 98 76 54 32 10 
    615      2754.106 DT     0100 Rx 8  01 23 45 67 89 AB CD EF 
    616      2759.933 DT     0101 Tx 8  FE DC BA 98 76 54 32 10 
    617      2764.080 DT     0100 Rx 8  01 23 45 67 89 AB CD EF 
    618      2769.937 DT     0101 Tx 8  FE DC BA 98 76 54 32 10 
    619      2774.090 DT     0100 Rx 8  01 23 45 67 89 AB CD EF 
    620      2779.954 DT     0101 Tx 8  FE DC BA 98 76 54 32 10 
    621      2784.120 DT     0100 Rx 8  01 23 45 67 89 AB CD EF 
    622      2789.956 DT     0101 Tx 8  FE DC BA 98 76 54 32 10 
    623      2794.100 DT     0100 Rx 8  01 23 45 67 89 AB CD EF 
    624      2799.940 DT     0101 Tx 8  FE DC BA 98 76 54 32 10 
    625      2804.104 DT     0100 Rx 8  01 23 45 67 89 AB CD EF 
    626      2809.949 DT     0101 Tx 8  FE DC BA 98 76 54 32 10 
    627      2814.070 DT     0100 Rx 8  01 23 45 67 89 AB CD EF 
    628      2819.942 DT     0101 Tx 8  FE DC BA 98 76 54 32 10 
    629      2824.096 DT     0100 Rx 8  01 23 45 67 89 AB CD EF 
    630      2830.170 DT     0101 Tx 8  FE DC BA 98 76 54 32 10 
    631      2833.444 DT     0100 Rx 8  01 23 45 67 89 AB CD EF 
    632      2840.261 DT     0101 Tx 8  FE DC BA 98 76 54 32 10 
    633      2843.439 DT     0100 Rx 8  01 23 45 67 89 AB CD EF 
    634      2850.268 DT     0101 Tx 8  FE DC BA 98 76 54 32 10 
    635      2853.385 DT     0100 Rx 8  01 23 45 67 89 AB CD EF 
    636      2856.910 DT     0001 Rx 8  37 09 34 56 DE AD BE EF 
    637      2860.270 DT     0101 Tx 8  FE DC BA 98 76 54 32 10 
    638      2863.398 DT     0100 Rx 8  01 23 45 67 89 AB CD EF 
    639      2870.281 DT     0101 Tx 8  FE DC BA 98 76 54 32 10 
    640      2873.404 DT     0100 Rx 8  01 23 45 67 89 AB CD EF 
    641      2880.248 DT     0101 Tx 8  FE DC BA 98 76 54 32 10 
    642      2879.924 DT     0001 Rx 8  38 09 34 56 DE AD BE EF 
    643      2883.416 DT     0100 Rx 8  01 23 45 67 89 AB CD EF 
    644      2890.251 DT     0101 Tx 8  FE DC BA 98 76 54 32 10 
    645      2893.450 DT     0100 Rx 8  01 23 45 67 89 AB CD EF 
    646      2900.271 DT     0101 Tx 8  FE DC BA 98 76 54 32 10 
    647      2903.414 DT     0100 Rx 8  01 23 45 67 89 AB CD EF 
    648      2910.270 DT     0101 Tx 8  FE DC BA 98 76 54 32 10 
    649      2913.396 DT     0100 Rx 8  01 23 45 67 89 AB CD EF 
    650      2920.293 DT     0101 Tx 8  FE DC BA 98 76 54 32 10 
    651      2923.442 DT     0100 Rx 8  01 23 45 67 89 AB CD EF 
    652      2930.272 DT     0101 Tx 8  FE DC BA 98 76 54 32 10 
    653      2933.444 DT     0100 Rx 8  01 23 45 67 89 AB CD EF 
    654      2940.285 DT     0101 Tx 8  FE DC BA 98 76 54 32 10 
    655      2943.480 DT     0100 Rx 8  01 23 45 67 89 AB CD EF 
    656      2950.270 DT     0101 Tx 8  FE DC BA 98 76 54 32 10 
    657      2953.426 DT     0100 Rx 8  01 23 45 67 89 AB CD EF 
    658      2958.797 DT     0001 Rx 8  25 00 34 56 DE AD BE EF 
    659      2960.256 DT     0101 Tx 8  FE DC BA 98 76 54 32 10 
    660      2963.388 DT     0100 Rx 8  01 23 45 67 89 AB CD EF 
    661      2970.293 DT     0101 Tx 8  FE DC BA 98 76 54 32 10 
    662      2973.454 DT     0100 Rx 8  01 23 45 67 89 AB CD EF 
    663      2980.309 DT     0101 Tx 8  FE DC BA 98 76 54 32 10 
    664      2979.791 DT     0001 Rx 8  26 00 34 56 DE AD BE EF 
    665      2983.401 DT     0100 Rx 8  01 23 45 67 89 AB CD EF 
    666      2990.282 DT     0101 Tx 8  FE DC BA 98 76 54 32 10 
    667      2993.407 DT     0100 Rx 8  01 23 45 67 89 AB CD EF 
    668      3000.282 DT     0101 Tx 8  FE DC BA 98 76 54 32 10 
    669      3003.445 DT     0100 Rx 8  01 23 45 67 89 AB CD EF 
    670      3010.248 DT     0101 Tx 8  FE DC BA 98 76 54 32 10 
    671      3013.447 DT     0100 Rx 8  01 23 45 67 89 AB CD EF 
    672      3020.246 DT     0101 Tx 8  FE DC BA 98 76 54 32 10 
    673      3023.441 DT     0100 Rx 8  01 23 45 67 89 AB CD EF 
    674      3030.281 DT     0101 Tx 8  FE DC BA 98 76 54 32 10 
    675      3033.412 DT     0100 Rx 8  01 23 45 67 89 AB CD EF 
    676      3040.261 DT     0101 Tx 8  FE DC BA 98 76 54 32 10 
    677      3043.402 DT     0100 Rx 8  01 23 45 67 89 AB CD EF 
    678      3050.244 DT     0101 Tx 8  FE DC BA 98 76 54 32 10 
    679      3053.448 DT     0100 Rx 8  01 23 45 67 89 AB CD EF 
    680      3060.251 DT     0101 Tx 8  FE DC BA 98 76 54 32 10 
    681      3063.448 DT     0100 Rx 8  01 23 45 67 89 AB CD EF 
    682      3070.247 DT     0101 Tx 8  FE DC BA 98 76 54 32 10 
    683      3073.438 DT     0100 Rx 8  01 23 45 67 89 AB CD EF 
    684      3080.485 DT     0101 Tx 8  FE DC BA 98 76 54 32 10 
    685      3083.640 DT     0100 Rx 8  01 23 45 67 89 AB CD EF 
    686      3090.498 DT     0101 Tx 8  FE DC BA 98 76 54 32 10 
    687      3093.604 DT     0100 Rx 8  01 23 45 67 89 AB CD EF 
    688      3100.519 DT     0101 Tx 8  FE DC BA 98 76 54 32 10 
    689      3103.610 DT     0100 Rx 8  01 23 45 67 89 AB CD EF 
    690      3110.497 DT     0101 Tx 8  FE DC BA 98 76 54 32 10 
    691      3113.611 DT     0100 Rx 8  01 23 45 67 89 AB CD EF 
    692      3120.505 DT     0101 Tx 8  FE DC BA 98 76 54 32 10 
    693      3123.639 DT     0100 Rx 8  01 23 45 67 89 AB CD EF 
    694      3130.479 DT     0101 Tx 8  FE DC BA 98 76 54 32 10 
    695      3133.603 DT     0100 Rx 8  01 23 45 67 89 AB CD EF 
    696      3140.482 DT     0101 Tx 8  FE DC BA 98 76 54 32 10 
    697      3139.905 DT     0001 Rx 8  0C 01 34 56 DE AD BE EF 
    698      3143.609 DT     0100 Rx 8  01 23 45 67 89 AB CD EF 
    699      3150.494 DT     0101 Tx 8  FE DC BA 98 76 54 32 10 
    700      3153.623 DT     0100 Rx 8  01 23 45 67 89 AB CD EF 
    701      3155.918 DT     0001 Rx 8  39 01 34 56 DE AD BE EF 
    702      3160.476 DT     0101 Tx 8  FE DC BA 98 76 54 32 10 
    703      3163.620 DT     0100 Rx 8  01 23 45 67 89 AB CD EF 
    704      3170.481 DT     0101 Tx 8  FE DC BA 98 76 54 32 10 
    705      3173.618 DT     0100 Rx 8  01 23 45 67 89 AB CD EF 
    706      3178.901 DT     0001 Rx 8  3A 02 34 56 DE AD BE EF 
    707      3180.533 DT     0101 Tx 8  FE DC BA 98 76 54 32 10 
    708      3183.609 DT     0100 Rx 8  01 23 45 67 89 AB CD EF 
    709      3190.474 DT     0101 Tx 8  FE DC BA 98 76 54 32 10 
    710      3193.609 DT     0100 Rx 8  01 23 45 67 89 AB CD EF 
    711      3200.488 DT     0101 Tx 8  FE DC BA 98 76 54 32 10 
    712      3201.895 DT     0001 Rx 8  3B 02 34 56 DE AD BE EF 
    713      3203.619 DT     0100 Rx 8  01 23 45 67 89 AB CD EF 
    714      3210.491 DT     0101 Tx 8  FE DC BA 98 76 54 32 10 
    715      3213.625 DT     0100 Rx 8  01 23 45 67 89 AB CD EF 
    716      3220.474 DT     0101 Tx 8  FE DC BA 98 76 54 32 10 
    717      3223.625 DT     0100 Rx 8  01 23 45 67 89 AB CD EF 
    718      3224.912 DT     0001 Rx 8  3C 02 34 56 DE AD BE EF 
    719      3230.833 DT     0101 Tx 8  FE DC BA 98 76 54 32 10 
    720      3233.653 DT     0100 Rx 8  01 23 45 67 89 AB CD EF 
    721      3240.715 DT     0101 Tx 8  FE DC BA 98 76 54 32 10 
    722      3243.932 DT     0100 Rx 8  01 23 45 67 89 AB CD EF 
    723      3248.909 DT     0001 Rx 8  3D 02 34 56 DE AD BE EF 
    724      3250.862 DT     0101 Tx 8  FE DC BA 98 76 54 32 10 
    725      3253.637 DT     0100 Rx 8  01 23 45 67 89 AB CD EF 
    726      3259.786 DT     0101 Tx 8  FE DC BA 98 76 54 32 10 
    727      3263.889 DT     0100 Rx 8  01 23 45 67 89 AB CD EF 
    728      3270.545 DT     0101 Tx 8  FE DC BA 98 76 54 32 10 
    729      3273.733 DT     0100 Rx 8  01 23 45 67 89 AB CD EF 
    730      3280.869 DT     0101 Tx 8  FE DC BA 98 76 54 32 10 
    731      3283.679 DT     0100 Rx 8  01 23 45 67 89 AB CD EF 
    732      3290.762 DT     0101 Tx 8  FE DC BA 98 76 54 32 10 
    733      3293.865 DT     0100 Rx 8  01 23 45 67 89 AB CD EF 
    734      3297.901 DT     0001 Rx 8  29 03 34 56 DE AD BE EF 
    735      3299.761 DT     0101 Tx 8  FE DC BA 98 76 54 32 10 
    736      3303.915 DT     0100 Rx 8  01 23 45 67 89 AB CD EF 
    737      3309.741 DT     0101 Tx 8  FE DC BA 98 76 54 32 10 
    738      3313.905 DT     0100 Rx 8  01 23 45 67 89 AB CD EF 
    739      3320.563 DT     0101 Tx 8  FE DC BA 98 76 54 32 10 
    740      3323.609 DT     0100 Rx 8  01 23 45 67 89 AB CD EF 
    741      3330.844 DT     0101 Tx 8  FE DC BA 98 76 54 32 10 
    742      3333.951 DT     0100 Rx 8  01 23 45 67 89 AB CD EF 
    743      3339.837 DT     0101 Tx 8  FE DC BA 98 76 54 32 10 
    744      3343.979 DT     0100 Rx 8  01 23 45 67 89 AB CD EF 
    745      3350.471 DT     0101 Tx 8  FE DC BA 98 76 54 32 10 
    746      3353.723 DT     0100 Rx 8  01 23 45 67 89 AB CD EF 
    747      3359.767 DT     0101 Tx 8  FE DC BA 98 76 54 32 10 
    748      3363.615 DT     0100 Rx 8  01 23 45 67 89 AB CD EF 
    749      3370.815 DT     0101 Tx 8  FE DC BA 98 76 54 32 10 
    750      3373.820 DT     0100 Rx 8  01 23 45 67 89 AB CD EF 
    751      3380.503 DT     0101 Tx 8  FE DC BA 98 76 54 32 10 
    752      3383.690 DT     0100 Rx 8  01 23 45 67 89 AB CD EF 
    753      3389.800 DT     0101 Tx 8  FE DC BA 98 76 54 32 10 
    754      3393.948 DT     0100 Rx 8  01 23 45 67 89 AB CD EF 
    755      3399.785 DT     0101 Tx 8  FE DC BA 98 76 54 32 10 
    756      3403.960 DT     0100 Rx 8  01 23 45 67 89 AB CD EF 
    757      3410.482 DT     0101 Tx 8  FE DC BA 98 76 54 32 10 
    758      3413.648 DT     0100 Rx 8  01 23 45 67 89 AB CD EF 
    759      3420.489 DT     0101 Tx 8  FE DC BA 98 76 54 32 10 
    760      3423.822 DT     0100 Rx 8  01 23 45 67 89 AB CD EF 
    761      3429.852 DT     0101 Tx 8  FE DC BA 98 76 54 32 10 
    762      3430.798 DT     0001 Rx 8  2F 03 34 56 DE AD BE EF 
    763      3433.514 DT     0100 Rx 8  01 23 45 67 89 AB CD EF 
    764      3440.491 DT     0101 Tx 8  FE DC BA 98 76 54 32 10 
    765      3443.790 DT     0100 Rx 8  01 23 45 67 89 AB CD EF 
    766      3449.799 DT     0101 Tx 8  FE DC BA 98 76 54 32 10 
    767      3453.874 DT     0100 Rx 8  01 23 45 67 89 AB CD EF 
    768      3460.557 DT     0101 Tx 8  FE DC BA 98 76 54 32 10 
    769      3460.834 DT     0001 Rx 8  1A 03 34 56 DE AD BE EF 
    770      3463.852 DT     0100 Rx 8  01 23 45 67 89 AB CD EF 
    771      3470.821 DT     0101 Tx 8  FE DC BA 98 76 54 32 10 
    772      3473.580 DT     0100 Rx 8  01 23 45 67 89 AB CD EF 
    773      3475.675 DT     0001 Rx 8  31 03 34 56 DE AD BE EF 
    774      3480.569 DT     0101 Tx 8  FE DC BA 98 76 54 32 10 
    775      3483.583 DT     0100 Rx 8  01 23 45 67 89 AB CD EF 
    776      3490.554 DT     0101 Tx 8  FE DC BA 98 76 54 32 10 
    777      3493.589 DT     0100 Rx 8  01 23 45 67 89 AB CD EF 
    778      3499.801 DT     0101 Tx 8  FE DC BA 98 76 54 32 10 
    779      3503.600 DT     0100 Rx 8  01 23 45 67 89 AB CD EF 
    780      3510.506 DT     0101 Tx 8  FE DC BA 98 76 54 32 10 
    781      3513.538 DT     0100 Rx 8  01 23 45 67 89 AB CD EF 
    782      3520.728 DT     0101 Tx 8  FE DC BA 98 76 54 32 10 
    783      3523.667 DT     0001 Rx 8  3E 04 34 56 DE AD BE EF 
    784      3523.897 DT     0100 Rx 8  01 23 45 67 89 AB CD EF 
    785      3530.834 DT     0101 Tx 8  FE DC BA 98 76 54 32 10 
    786      3533.515 DT     0100 Rx 8  01 23 45 67 89 AB CD EF 
    787      3539.786 DT     0001 Rx 8  34 05 34 56 DE AD BE EF 
    788      3540.530 DT     0101 Tx 8  FE DC BA 98 76 54 32 10 
    789      3543.640 DT     0100 Rx 8  01 23 45 67 89 AB CD EF 
    790      3546.661 DT     0001 Rx 8  3F 06 34 56 DE AD BE EF 
    791      3550.477 DT     0101 Tx 8  FE DC BA 98 76 54 32 10 
    792      3553.555 DT     0100 Rx 8  01 23 45 67 89 AB CD EF 
    793      3559.787 DT     0101 Tx 8  FE DC BA 98 76 54 32 10 
    794      3563.783 DT     0100 Rx 8  01 23 45 67 89 AB CD EF 
    795      3568.668 DT     0001 Rx 8  40 06 34 56 DE AD BE EF 
    796      3570.471 DT     0101 Tx 8  FE DC BA 98 76 54 32 10 
    797      3573.854 DT     0100 Rx 8  01 23 45 67 89 AB CD EF 
    798      3579.826 DT     0101 Tx 8  FE DC BA 98 76 54 32 10 
    799      3583.878 DT     0100 Rx 8  01 23 45 67 89 AB CD EF 
    800      3584.666 DT     0001 Rx 8  36 07 34 56 DE AD BE EF 
    801      3589.756 DT     0101 Tx 8  FE DC BA 98 76 54 32 10 
    802      3590.666 DT     0001 Rx 8  41 07 34 56 DE AD BE EF 
    803      3593.830 DT     0100 Rx 8  01 23 45 67 89 AB CD EF 
    804      3600.480 DT     0101 Tx 8  FE DC BA 98 76 54 32 10 
    805      3603.526 DT     0100 Rx 8  01 23 45 67 89 AB CD EF 
    806      3610.820 DT     0101 Tx 8  FE DC BA 98 76 54 32 10 
    807      3613.656 DT     0001 Rx 8  42 07 34 56 DE AD BE EF 
    808      3613.887 DT     0100 Rx 8  01 23 45 67 89 AB CD EF 
    809      3620.777 DT     0101 Tx 8  FE DC BA 98 76 54 32 10 
    810      3623.621 DT     0100 Rx 8  01 23 45 67 89 AB CD EF 
    811      3630.599 DT     0101 Tx 8  FE DC BA 98 76 54 32 10 
    812      3633.585 DT     0100 Rx 8  01 23 45 67 89 AB CD EF 
    813      3635.787 DT     0001 Rx 8  43 08 34 56 DE AD BE EF 
    814      3640.705 DT     0101 Tx 8  FE DC BA 98 76 54 32 10 
    815      3643.633 DT     0100 Rx 8  01 23 45 67 89 AB CD EF 
    816      3650.561 DT     0101 Tx 8  FE DC BA 98 76 54 32 10 
    817      3653.611 DT     0100 Rx 8  01 23 45 67 89 AB CD EF 
    818      3659.756 DT     0101 Tx 8  FE DC BA 98 76 54 32 10 
    819      3663.583 DT     0100 Rx 8  01 23 45 67 89 AB CD EF 
    820      3670.503 DT     0101 Tx 8  FE DC BA 98 76 54 32 10 
    821      3673.589 DT     0100 Rx 8  01 23 45 67 89 AB CD EF 
    822      3679.756 DT     0101 Tx 8  FE DC BA 98 76 54 32 10 
    823      3683.839 DT     0100 Rx 8  01 23 45 67 89 AB CD EF 
    824      3690.493 DT     0101 Tx 8  FE DC BA 98 76 54 32 10 
    825      3693.545 DT     0100 Rx 8  01 23 45 67 89 AB CD EF 
    826      3700.468 DT     0101 Tx 8  FE DC BA 98 76 54 32 10 
    827      3703.807 DT     0100 Rx 8  01 23 45 67 89 AB CD EF 
    828      3710.833 DT     0101 Tx 8  FE DC BA 98 76 54 32 10 
    829      3713.777 DT     0100 Rx 8  01 23 45 67 89 AB CD EF 
    830      3720.503 DT     0101 Tx 8  FE DC BA 98 76 54 32 10 
    831      3723.539 DT     0100 Rx 8  01 23 45 67 89 AB CD EF 
    832      3729.780 DT     0101 Tx 8  FE DC BA 98 76 54 32 10 
    833      3733.585 DT     0100 Rx 8  01 23 45 67 89 AB CD EF 
    834      3740.517 DT     0101 Tx 8  FE DC BA 98 76 54 32 10 
    835      3743.677 DT     0100 Rx 8  01 23 45 67 89 AB CD EF 
    836      3749.826 DT     0101 Tx 8  FE DC BA 98 76 54 32 10 
    837      3753.721 DT     0100 Rx 8  01 23 45 67 89 AB CD EF 
    838      3760.580 DT     0101 Tx 8  FE DC BA 98 76 54 32 10 
    839      3763.627 DT     0100 Rx 8  01 23 45 67 89 AB CD EF 
    840      3770.668 DT     0101 Tx 8  FE DC BA 98 76 54 32 10 
    841      3773.556 DT     0100 Rx 8  01 23 45 67 89 AB CD EF 
    842      3780.832 DT     0101 Tx 8  FE DC BA 98 76 54 32 10 
    843      3783.622 DT     0100 Rx 8  01 23 45 67 89 AB CD EF 
    844      3790.548 DT     0101 Tx 8  FE DC BA 98 76 54 32 10 
    845      3793.579 DT     0100 Rx 8  01 23 45 67 89 AB CD EF 
    846      3800.501 DT     0101 Tx 8  FE DC BA 98 76 54 32 10 
    847      3803.537 DT     0100 Rx 8  01 23 45 67 89 AB CD EF 
    848      3810.563 DT     0101 Tx 8  FE DC BA 98 76 54 32 10 
    849      3813.737 DT     0100 Rx 8  01 23 45 67 89 AB CD EF 
    850      3820.504 DT     0101 Tx 8  FE DC BA 98 76 54 32 10 
    851      3823.829 DT     0100 Rx 8  01 23 45 67 89 AB CD EF 
    852      3830.486 DT     0101 Tx 8  FE DC BA 98 76 54 32 10 
    853      3833.609 DT     0100 Rx 8  01 23 45 67 89 AB CD EF 
    854      3840.605 DT     0101 Tx 8  FE DC BA 98 76 54 32 10 
    855      3843.849 DT     0100 Rx 8  01 23 45 67 89 AB CD EF 
    856      3849.762 DT     0101 Tx 8  FE DC BA 98 76 54 32 10 
    857      3853.871 DT     0100 Rx 8  01 23 45 67 89 AB CD EF 
    858      3859.784 DT     0101 Tx 8  FE DC BA 98 76 54 32 10 
    859      3863.877 DT     0100 Rx 8  01 23 45 67 89 AB CD EF 
    860      3869.793 DT     0101 Tx 8  FE DC BA 98 76 54 32 10 
    861      3873.753 DT     0100 Rx 8  01 23 45 67 89 AB CD EF 
    862      3880.472 DT     0101 Tx 8  FE DC BA 98 76 54 32 10 
    863      3880.785 DT     0001 Rx 8  38 09 34 56 DE AD BE EF 
    864      3883.515 DT     0100 Rx 8  01 23 45 67 89 AB CD EF 
    865      3890.461 DT     0101 Tx 8  FE DC BA 98 76 54 32 10 
    866      3893.791 DT     0100 Rx 8  01 23 45 67 89 AB CD EF 
    867      3900.771 DT     0101 Tx 8  FE DC BA 98 76 54 32 10 
    868      3903.716 DT     0100 Rx 8  01 23 45 67 89 AB CD EF 
    869      3910.458 DT     0101 Tx 8  FE DC BA 98 76 54 32 10 
    870      3910.768 DT     0001 Rx 8  44 09 34 56 DE AD BE EF 
    871      3913.476 DT     0100 Rx 8  01 23 45 67 89 AB CD EF 
    872      3919.785 DT     0101 Tx 8  FE DC BA 98 76 54 32 10 
    873      3923.794 DT     0100 Rx 8  01 23 45 67 89 AB CD EF 
    874      3930.521 DT     0101 Tx 8  FE DC BA 98 76 54 32 10 
    875      3933.726 DT     0100 Rx 8  01 23 45 67 89 AB CD EF 
    876      3933.956 DT     0001 Rx 8  45 09 34 56 DE AD BE EF 
    877      3939.743 DT     0101 Tx 8  FE DC BA 98 76 54 32 10 
    878      3943.476 DT     0100 Rx 8  01 23 45 67 89 AB CD EF 
    879      3949.775 DT     0101 Tx 8  FE DC BA 98 76 54 32 10 
    880      3953.848 DT     0100 Rx 8  01 23 45 67 89 AB CD EF 
    881      3959.756 DT     0101 Tx 8  FE DC BA 98 76 54 32 10 
    882      3963.518 DT     0100 Rx 8  01 23 45 67 89 AB CD EF 
    883      3969.739 DT     0101 Tx 8  FE DC BA 98 76 54 32 10 
    884      3973.484 DT     0100 Rx 8  01 23 45 67 89 AB CD EF 
    885      3980.609 DT     0101 Tx 8  FE DC BA 98 76 54 32 10 
    886      3981.646 DT     0001 Rx 8  26 00 34 56 DE AD BE EF 
    887      3983.590 DT     0100 Rx 8  01 23 45 67 89 AB CD EF 
    888      3990.504 DT     0101 Tx 8  FE DC BA 98 76 54 32 10 
    889      3993.620 DT     0100 Rx 8  01 23 45 67 89 AB CD EF 
    890      4000.780 DT     0101 Tx 8  FE DC BA 98 76 54 32 10 
    891      4003.668 DT     0100 Rx 8  01 23 45 67 89 AB CD EF 
    892      4010.541 DT     0101 Tx 8  FE DC BA 98 76 54 32 10 
    893      4013.862 DT     0100 Rx 8  01 23 45 67 89 AB CD EF 
    894      4020.551 DT     0101 Tx 8  FE DC BA 98 76 54 32 10 
    895      4023.600 DT     0100 Rx 8  01 23 45 67 89 AB CD EF 
    896      4030.712 DT     0101 Tx 8  FE DC BA 98 76 54 32 10 
    897      4033.765 DT     0100 Rx 8  01 23 45 67 89 AB CD EF 
    898      4040.695 DT     0101 Tx 8  FE DC BA 98 76 54 32 10 
    899      4043.513 DT     0100 Rx 8  01 23 45 67 89 AB CD EF 
    900      4050.720 DT     0101 Tx 8  FE DC BA 98 76 54 32 10 
    901      4053.767 DT     0100 Rx 8  01 23 45 67 89 AB CD EF 
    902      4060.751 DT     0101 Tx 8  FE DC BA 98 76 54 32 10 
    903      4063.665 DT     0100 Rx 8  01 23 45 67 89 AB CD EF 
    904      4070.462 DT     0101 Tx 8  FE DC BA 98 76 54 32 10 
    905      4073.535 DT     0100 Rx 8  01 23 45 67 89 AB CD EF 
    906      4079.796 DT     0101 Tx 8  FE DC BA 98 76 54 32 10 
    907      4083.531 DT     0100 Rx 8  01 23 45 67 89 AB CD EF 
    908      4090.504 DT     0101 Tx 8  FE DC BA 98 76 54 32 10 
    909      4093.836 DT     0100 Rx 8  01 23 45 67 89 AB CD EF 
    910      4100.562 DT     0101 Tx 8  FE DC BA 98 76 54 32 10 
    911      4103.604 DT     0100 Rx 8  01 23 45 67 89 AB CD EF 
    912      4109.789 DT     0101 Tx 8  FE DC BA 98 76 54 32 10 
    913      4113.546 DT     0100 Rx 8  01 23 45 67 89 AB CD EF 
    914      4120.442 DT     0101 Tx 8  FE DC BA 98 76 54 32 10 
    915      4123.786 DT     0100 Rx 8  01 23 45 67 89 AB CD EF 
    916      4129.762 DT     0101 Tx 8  FE DC BA 98 76 54 32 10 
    917      4133.836 DT     0100 Rx 8  01 23 45 67 89 AB CD EF 
    918      4139.753 DT     0101 Tx 8  FE DC BA 98 76 54 32 10 
    919      4143.782 DT     0100 Rx 8  01 23 45 67 89 AB CD EF 
    920      4150.765 DT     0101 Tx 8  FE DC BA 98 76 54 32 10 
    921      4153.750 DT     0100 Rx 8  01 23 45 67 89 AB CD EF 
    922      4157.776 DT     0001 Rx 8  39 00 34 56 DE AD BE EF 
    923      4160.487 DT     0101 Tx 8  FE DC BA 98 76 54 32 10 
    924      4163.519 DT     0100 Rx 8  01 23 45 67 89 AB CD EF 
    925      4170.448 DT     0101 Tx 8  FE DC BA 98 76 54 32 10 
    926      4173.805 DT     0100 Rx 8  01 23 45 67 89 AB CD EF 
    927      4179.794 DT     0101 Tx 8  FE DC BA 98 76 54 32 10 
    928      4183.489 DT     0100 Rx 8  01 23 45 67 89 AB CD EF 
    929      4189.767 DT     0101 Tx 8  FE DC BA 98 76 54 32 10 
    930      4193.833 DT     0100 Rx 8  01 23 45 67 89 AB CD EF 
    931      4199.802 DT     0101 Tx 8  FE DC BA 98 76 54 32 10 
    932      4203.769 DT     0100 Rx 8  01 23 45 67 89 AB CD EF 
    933      4208.771 DT     0001 Rx 8  46 00 34 56 DE AD BE EF 
    934      4210.560 DT     0101 Tx 8  FE DC BA 98 76 54 32 10 
    935      4213.569 DT     0100 Rx 8  01 23 45 67 89 AB CD EF 
    936      4219.779 DT     0101 Tx 8  FE DC BA 98 76 54 32 10 
    937      4223.521 DT     0100 Rx 8  01 23 45 67 89 AB CD EF 
    938      4230.447 DT     0101 Tx 8  FE DC BA 98 76 54 32 10 
    939      4230.759 DT     0001 Rx 8  47 01 34 56 DE AD BE EF 
    940      4233.501 DT     0100 Rx 8  01 23 45 67 89 AB CD EF 
    941      4240.472 DT     0101 Tx 8  FE DC BA 98 76 54 32 10 
    942      4243.485 DT     0100 Rx 8  01 23 45 67 89 AB CD EF 
    943      4250.452 DT     0101 Tx 8  FE DC BA 98 76 54 32 10 
    944      4249.760 DT     0001 Rx 8  3D 01 34 56 DE AD BE EF 
    945      4253.492 DT     0100 Rx 8  01 23 45 67 89 AB CD EF 
    946      4254.760 DT     0001 Rx 8  48 02 34 56 DE AD BE EF 
    947      4260.450 DT     0101 Tx 8  FE DC BA 98 76 54 32 10 
    948      4263.486 DT     0100 Rx 8  01 23 45 67 89 AB CD EF 
    949      4270.474 DT     0101 Tx 8  FE DC BA 98 76 54 32 10 
    950      4273.510 DT     0100 Rx 8  01 23 45 67 89 AB CD EF 
    951      4277.750 DT     0001 Rx 8  49 02 34 56 DE AD BE EF 
    952      4280.443 DT     0101 Tx 8  FE DC BA 98 76 54 32 10 
    953      4283.510 DT     0100 Rx 8  01 23 45 67 89 AB CD EF 
    954      4290.807 DT     0101 Tx 8  FE DC BA 98 76 54 32 10 
    955      4293.414 DT     0100 Rx 8  01 23 45 67 89 AB CD EF 
    956      4300.417 DT     0101 Tx 8  FE DC BA 98 76 54 32 10 
    957      4303.431 DT     0100 Rx 8  01 23 45 67 89 AB CD EF 
    958      4310.388 DT     0101 Tx 8  FE DC BA 98 76 54 32 10 
    959      4313.449 DT     0100 Rx 8  01 23 45 67 89 AB CD EF 
    960      4320.386 DT     0101 Tx 8  FE DC BA 98 76 54 32 10 
    961      4323.477 DT     0100 Rx 8  01 23 45 67 89 AB CD EF 
    962      4330.382 DT     0101 Tx 8  FE DC BA 98 76 54 32 10 
    963      4333.449 DT     0100 Rx 8  01 23 45 67 89 AB CD EF 
    964      4340.398 DT     0101 Tx 8  FE DC BA 98 76 54 32 10 
    965      4343.441 DT     0100 Rx 8  01 23 45 67 89 AB CD EF 
    966      4350.399 DT     0101 Tx 8  FE DC BA 98 76 54 32 10 
    967      4353.465 DT     0100 Rx 8  01 23 45 67 89 AB CD EF 
    968      4360.408 DT     0101 Tx 8  FE DC BA 98 76 54 32 10 
    969      4363.455 DT     0100 Rx 8  01 23 45 67 89 AB CD EF 
    970      4370.406 DT     0101 Tx 8  FE DC BA 98 76 54 32 10 
    971      4373.461 DT     0100 Rx 8  01 23 45 67 89 AB CD EF 
    972      4380.395 DT     0101 Tx 8  FE DC BA 98 76 54 32 10 
    973      4383.459 DT     0100 Rx 8  01 23 45 67 89 AB CD EF 
    974      4390.398 DT     0101 Tx 8  FE DC BA 98 76 54 32 10 
    975      4393.461 DT     0100 Rx 8  01 23 45 67 89 AB CD EF 
    976      4400.382 DT     0101 Tx 8  FE DC BA 98 76 54 32 10 
    977      4403.453 DT     0100 Rx 8  01 23 45 67 89 AB CD EF 
    978      4410.400 DT     0101 Tx 8  FE DC BA 98 76 54 32 10 
    979      4413.463 DT     0100 Rx 8  01 23 45 67 89 AB CD EF 
    980      4420.387 DT     0101 Tx 8  FE DC BA 98 76 54 32 10 
    981      4423.375 DT     0100 Rx 8  01 23 45 67 89 AB CD EF 
    982      4430.403 DT     0101 Tx 8  FE DC BA 98 76 54 32 10 
    983      4433.360 DT     0100 Rx 8  01 23 45 67 89 AB CD EF 
    984      4440.421 DT     0101 Tx 8  FE DC BA 98 76 54 32 10 
    985      4443.355 DT     0100 Rx 8  01 23 45 67 89 AB CD EF 
    986      4450.393 DT     0101 Tx 8  FE DC BA 98 76 54 32 10 
    987      4453.351 DT     0100 Rx 8  01 23 45 67 89 AB CD EF 
    988      4460.421 DT     0101 Tx 8  FE DC BA 98 76 54 32 10 
    989      4463.357 DT     0100 Rx 8  01 23 45 67 89 AB CD EF 
    990      4470.393 DT     0101 Tx 8  FE DC BA 98 76 54 32 10 
    991      4473.351 DT     0100 Rx 8  01 23 45 67 89 AB CD EF 
    992      4476.655 DT     0001 Rx 8  31 03 34 56 DE AD BE EF 
    993      4480.419 DT     0101 Tx 8  FE DC BA 98 76 54 32 10 
    994      4483.363 DT     0100 Rx 8  01 23 45 67 89 AB CD EF 
    995      4490.388 DT     0101 Tx 8  FE DC BA 98 76 54 32 10 
    996      4493.325 DT     0100 Rx 8  01 23 45 67 89 AB CD EF 
    997      4500.381 DT     0101 Tx 8  FE DC BA 98 76 54 32 10 
    998      4503.335 DT     0100 Rx 8  01 23 45 67 89 AB CD EF 
    999      4510.385 DT     0101 Tx 8  FE DC BA 98 76 54 32 10 
   1000      4513.355 DT     0100 Rx 8  01 23 45 67 89 AB CD EF 
   1001      4520.383 DT     0101 Tx 8  FE DC BA 98 76 54 32 10 
   1002      4523.347 DT     0100 Rx 8  01 23 45 67 89 AB CD EF 
   1003      4525.526 DT     0001 Rx 8  3E 03 34 56 DE AD BE EF 
   1004      4530.394 DT     0101 Tx 8  FE DC BA 98 76 54 32 10 
   1005      4533.348 DT     0100 Rx 8  01 23 45 67 89 AB CD EF 
   1006      4540.401 DT     0101 Tx 8  FE DC BA 98 76 54 32 10 
   1007      4540.644 DT     0001 Rx 8  34 04 34 56 DE AD BE EF 
   1008      4543.352 DT     0100 Rx 8  01 23 45 67 89 AB CD EF 
   1009      4550.394 DT     0101 Tx 8  FE DC BA 98 76 54 32 10 
   1010      4551.645 DT     0001 Rx 8  4A 04 34 56 DE AD BE EF 
   1011      4553.360 DT     0100 Rx 8  01 23 45 67 89 AB CD EF 
   1012      4560.385 DT     0101 Tx 8  FE DC BA 98 76 54 32 10 
   1013      4563.361 DT     0100 Rx 8  01 23 45 67 89 AB CD EF 
   1014      4570.404 DT     0101 Tx 8  FE DC BA 98 76 54 32 10 
   1015      4570.658 DT     0001 Rx 8  40 04 34 56 DE AD BE EF 
   1016      4573.355 DT     0100 Rx 8  01 23 45 67 89 AB CD EF 
   1017      4575.637 DT     0001 Rx 8  4B 04 34 56 DE AD BE EF 
   1018      4580.387 DT     0101 Tx 8  FE DC BA 98 76 54 32 10 
   1019      4583.349 DT     0100 Rx 8  01 23 45 67 89 AB CD EF 
   1020      4590.379 DT     0101 Tx 8  FE DC BA 98 76 54 32 10 
   1021      4593.319 DT     0100 Rx 8  01 23 45 67 89 AB CD EF 
   1022      4598.645 DT     0001 Rx 8  4C 05 34 56 DE AD BE EF 
   1023      4600.384 DT     0101 Tx 8  FE DC BA 98 76 54 32 10 
   1024      4603.349 DT     0100 Rx 8  01 23 45 67 89 AB CD EF 
   1025      4610.386 DT     0101 Tx 8  FE DC BA 98 76 54 32 10 
   1026      4613.359 DT     0100 Rx 8  01 23 45 67 89 AB CD EF 
   1027      4615.648 DT     0001 Rx 8  42 05 34 56 DE AD BE EF 
   1028      4620.404 DT     0101 Tx 8  FE DC BA 98 76 54 32 10 
   1029      4622.641 DT     0001 Rx 8  4D 06 34 56 DE AD BE EF 
   1030      4623.385 DT     0100 Rx 8  01 23 45 67 89 AB CD EF 
   1031      4630.466 DT     0101 Tx 8  FE DC BA 98 76 54 32 10 
   1032      4633.367 DT     0100 Rx 8  01 23 45 67 89 AB CD EF 
   1033      4637.645 DT     0001 Rx 8  43 07 34 56 DE AD BE EF 
   1034      4640.386 DT     0101 Tx 8  FE DC BA 98 76 54 32 10 
   1035      4643.369 DT     0100 Rx 8  01 23 45 67 89 AB CD EF 
   1036      4644.640 DT     0001 Rx 8  4E 08 34 56 DE AD BE EF 
   1037      4650.380 DT     0101 Tx 8  FE DC BA 98 76 54 32 10 
   1038      4653.324 DT     0100 Rx 8  01 23 45 67 89 AB CD EF 
   1039      4660.414 DT     0101 Tx 8  FE DC BA 98 76 54 32 10 
   1040      4663.382 DT     0100 Rx 8  01 23 45 67 89 AB CD EF 
   1041      4667.648 DT     0001 Rx 8  4F 08 34 56 DE AD BE EF 
   1042      4670.387 DT     0101 Tx 8  FE DC BA 98 76 54 32 10 
   1043      4673.328 DT     0100 Rx 8  01 23 45 67 89 AB CD EF 
   1044      4680.392 DT     0101 Tx 8  FE DC BA 98 76 54 32 10 
   1045      4683.352 DT     0100 Rx 8  01 23 45 67 89 AB CD EF 
   1046      4690.407 DT     0101 Tx 8  FE DC BA 98 76 54 32 10 
   1047      4693.349 DT     0100 Rx 8  01 23 45 67 89 AB CD EF 
   1048      4700.392 DT     0101 Tx 8  FE DC BA 98 76 54 32 10 
   1049      4703.355 DT     0100 Rx 8  01 23 45 67 89 AB CD EF 
   1050      4710.398 DT     0101 Tx 8  FE DC BA 98 76 54 32 10 
   1051      4713.364 DT     0100 Rx 8  01 23 45 67 89 AB CD EF 
   1052      4720.424 DT     0101 Tx 8  FE DC BA 98 76 54 32 10 
   1053      4723.364 DT     0100 Rx 8  01 23 45 67 89 AB CD EF 
   1054      4730.443 DT     0101 Tx 8  FE DC BA 98 76 54 32 10 
   1055      4733.390 DT     0100 Rx 8  01 23 45 67 89 AB CD EF 
   1056      4740.446 DT     0101 Tx 8  FE DC BA 98 76 54 32 10 
   1057      4743.354 DT     0100 Rx 8  01 23 45 67 89 AB CD EF 
   1058      4750.384 DT     0101 Tx 8  FE DC BA 98 76 54 32 10 
   1059      4753.364 DT     0100 Rx 8  01 23 45 67 89 AB CD EF 
   1060      4760.409 DT     0101 Tx 8  FE DC BA 98 76 54 32 10 
   1061      4763.362 DT     0100 Rx 8  01 23 45 67 89 AB CD EF 
   1062      4770.392 DT     0101 Tx 8  FE DC BA 98 76 54 32 10 
   1063      4773.360 DT     0100 Rx 8  01 23 45 67 89 AB CD EF 
   1064      4780.398 DT     0101 Tx 8  FE DC BA 98 76 54 32 10 
   1065      4783.350 DT     0100 Rx 8  01 23 45 67 89 AB CD EF 
   1066      4790.423 DT     0101 Tx 8  FE DC BA 98 76 54 32 10 
   1067      4793.350 DT     0100 Rx 8  01 23 45 67 89 AB CD EF 
   1068      4800.402 DT     0101 Tx 8  FE DC BA 98 76 54 32 10 
   1069      4803.358 DT     0100 Rx 8  01 23 45 67 89 AB CD EF 
   1070      4810.410 DT     0101 Tx 8  FE DC BA 98 76 54 32 10 
   1071      4813.332 DT     0100 Rx 8  01 23 45 67 89 AB CD EF 
   1072      4820.402 DT     0101 Tx 8  FE DC BA 98 76 54 32 10 
   1073      4823.347 DT     0100 Rx 8  01 23 45 67 89 AB CD EF 
   1074      4830.390 DT     0101 Tx 8  FE DC BA 98 76 54 32 10 
   1075      4833.361 DT     0100 Rx 8  01 23 45 67 89 AB CD EF 
   1076      4840.400 DT     0101 Tx 8  FE DC BA 98 76 54 32 10 
   1077      4843.311 DT     0100 Rx 8  01 23 45 67 89 AB CD EF 
   1078      4850.391 DT     0101 Tx 8  FE DC BA 98 76 54 32 10 
   1079      4853.391 DT     0100 Rx 8  01 23 45 67 89 AB CD EF 
   1080      4860.401 DT     0101 Tx 8  FE DC BA 98 76 54 32 10 
   1081      4863.349 DT     0100 Rx 8  01 23 45 67 89 AB CD EF 
   1082      4870.393 DT     0101 Tx 8  FE DC BA 98 76 54 32 10 
   1083      4873.331 DT     0100 Rx 8  01 23 45 67 89 AB CD EF 
   1084      4880.388 DT     0101 Tx 8  FE DC BA 98 76 54 32 10 
   1085      4883.349 DT     0100 Rx 8  01 23 45 67 89 AB CD EF 
   1086      4890.382 DT     0101 Tx 8  FE DC BA 98 76 54 32 10 
   1087      4893.353 DT     0100 Rx 8  01 23 45 67 89 AB CD EF 
   1088      4900.381 DT     0101 Tx 8  FE DC BA 98 76 54 32 10 
   1089      4903.359 DT     0100 Rx 8  01 23 45 67 89 AB CD EF 
   1090      4910.405 DT     0101 Tx 8  FE DC BA 98 76 54 32 10 
   1091      4913.375 DT     0100 Rx 8  01 23 45 67 89 AB CD EF 
   1092      4920.386 DT     0101 Tx 8  FE DC BA 98 76 54 32 10 
   1093      4923.350 DT     0100 Rx 8  01 23 45 67 89 AB CD EF 
   1094      4930.406 DT     0101 Tx 8  FE DC BA 98 76 54 32 10 
   1095      4933.354 DT     0100 Rx 8  01 23 45 67 89 AB CD EF 
   1096      4934.627 DT     0001 Rx 8  45 09 34 56 DE AD BE EF 
   1097      4940.384 DT     0101 Tx 8  FE DC BA 98 76 54 32 10 
   1098      4943.351 DT     0100 Rx 8  01 23 45 67 89 AB CD EF 
   1099      4943.655 DT     0001 Rx 8  50 09 34 56 DE AD BE EF 
   1100      4950.378 DT     0101 Tx 8  FE DC BA 98 76 54 32 10 
   1101      4953.383 DT     0100 Rx 8  01 23 45 67 89 AB CD EF 
   1102      4960.388 DT     0101 Tx 8  FE DC BA 98 76 54 32 10 
   1103      4963.352 DT     0100 Rx 8  01 23 45 67 89 AB CD EF 
   1104      4966.636 DT     0001 Rx 8  51 09 34 56 DE AD BE EF 
   1105      4970.399 DT     0101 Tx 8  FE DC BA 98 76 54 32 10 
   1106      4973.350 DT     0100 Rx 8  01 23 45 67 89 AB CD EF 
   1107      4980.397 DT     0101 Tx 8  FE DC BA 98 76 54 32 10 
   1108      4983.357 DT     0100 Rx 8  01 23 45 67 89 AB CD EF 
   1109      4989.629 DT     0001 Rx 8  52 09 34 56 DE AD BE EF 
   1110      4990.398 DT     0101 Tx 8  FE DC BA 98 76 54 32 10 
   1111      4993.370 DT     0100 Rx 8  01 23 45 67 89 AB CD EF 
   1112      5000.385 DT     0101 Tx 8  FE DC BA 98 76 54 32 10 
   1113      5003.356 DT     0100 Rx 8  01 23 45 67 89 AB CD EF 
   1114      5010.467 DT     0101 Tx 8  FE DC BA 98 76 54 32 10 
   1115      5013.360 DT     0100 Rx 8  01 23 45 67 89 AB CD EF 
   1116      5020.388 DT     0101 Tx 8  FE DC BA 98 76 54 32 10 
   1117      5023.352 DT     0100 Rx 8  01 23 45 67 89 AB CD EF 
   1118      5030.411 DT     0101 Tx 8  FE DC BA 98 76 54 32 10 
   1119      5033.354 DT     0100 Rx 8  01 23 45 67 89 AB CD EF 
   1120      5040.379 DT     0101 Tx 8  FE DC BA 98 76 54 32 10 
   1121      5043.372 DT     0100 Rx 8  01 23 45 67 89 AB CD EF 
   1122      5050.412 DT     0101 Tx 8  FE DC BA 98 76 54 32 10 
   1123      5053.374 DT     0100 Rx 8  01 23 45 67 89 AB CD EF 
   1124      5059.769 DT     0101 Tx 8  FE DC BA 98 76 54 32 10 
   1125      5063.662 DT     0100 Rx 8  01 23 45 67 89 AB CD EF 
   1126      5070.420 DT     0101 Tx 8  FE DC BA 98 76 54 32 10 
   1127      5073.390 DT     0100 Rx 8  01 23 45 67 89 AB CD EF 
   1128      5080.442 DT     0101 Tx 8  FE DC BA 98 76 54 32 10 
   1129      5083.350 DT     0100 Rx 8  01 23 45 67 89 AB CD EF 
   1130      5090.428 DT     0101 Tx 8  FE DC BA 98 76 54 32 10 
   1131      5093.401 DT     0100 Rx 8  01 23 45 67 89 AB CD EF 
   1132      5100.397 DT     0101 Tx 8  FE DC BA 98 76 54 32 10 
   1133      5103.349 DT     0100 Rx 8  01 23 45 67 89 AB CD EF 
   1134      5110.386 DT     0101 Tx 8  FE DC BA 98 76 54 32 10 
   1135      5113.359 DT     0100 Rx 8  01 23 45 67 89 AB CD EF 
   1136      5120.380 DT     0101 Tx 8  FE DC BA 98 76 54 32 10 
   1137      5123.569 DT     0100 Rx 8  01 23 45 67 89 AB CD EF 
   1138      5130.595 DT     0101 Tx 8  FE DC BA 98 76 54 32 10 
   1139      5133.569 DT     0100 Rx 8  01 23 45 67 89 AB CD EF 
   1140      5140.541 DT     0101 Tx 8  FE DC BA 98 76 54 32 10 
   1141      5143.345 DT     0100 Rx 8  01 23 45 67 89 AB CD EF 
   1142      5150.615 DT     0101 Tx 8  FE DC BA 98 76 54 32 10 
   1143      5153.391 DT     0100 Rx 8  01 23 45 67 89 AB CD EF 
   1144      5160.439 DT     0101 Tx 8  FE DC BA 98 76 54 32 10 
   1145      5163.360 DT     0100 Rx 8  01 23 45 67 89 AB CD EF 
   1146      5170.385 DT     0101 Tx 8  FE DC BA 98 76 54 32 10 
   1147      5173.344 DT     0100 Rx 8  01 23 45 67 89 AB CD EF 
   1148      5180.693 DT     0101 Tx 8  FE DC BA 98 76 54 32 10 
   1149      5183.360 DT     0100 Rx 8  01 23 45 67 89 AB CD EF 
   1150      5190.420 DT     0101 Tx 8  FE DC BA 98 76 54 32 10 
   1151      5193.354 DT     0100 Rx 8  01 23 45 67 89 AB CD EF 
   1152      5200.382 DT     0101 Tx 8  FE DC BA 98 76 54 32 10 
   1153      5203.352 DT     0100 Rx 8  01 23 45 67 89 AB CD EF 
   1154      5210.382 DT     0101 Tx 8  FE DC BA 98 76 54 32 10 
   1155      5210.630 DT     0001 Rx 8  46 00 34 56 DE AD BE EF 
   1156      5213.364 DT     0100 Rx 8  01 23 45 67 89 AB CD EF 
   1157      5220.404 DT     0101 Tx 8  FE DC BA 98 76 54 32 10 
   1158      5223.357 DT     0100 Rx 8  01 23 45 67 89 AB CD EF 
   1159      5230.402 DT     0101 Tx 8  FE DC BA 98 76 54 32 10 
   1160      5233.365 DT     0100 Rx 8  01 23 45 67 89 AB CD EF 
   1161      5240.398 DT     0101 Tx 8  FE DC BA 98 76 54 32 10 
   1162      5243.349 DT     0100 Rx 8  01 23 45 67 89 AB CD EF 
   1163      5249.737 DT     0101 Tx 8  FE DC BA 98 76 54 32 10 
   1164      5251.632 DT     0001 Rx 8  3D 00 34 56 DE AD BE EF 
   1165      5253.900 DT     0100 Rx 8  01 23 45 67 89 AB CD EF 
   1166      5259.981 DT     0101 Tx 8  FE DC BA 98 76 54 32 10 
   1167      5263.936 DT     0100 Rx 8  01 23 45 67 89 AB CD EF 
   1168      5264.614 DT     0001 Rx 8  53 00 34 56 DE AD BE EF 
   1169      5269.975 DT     0101 Tx 8  FE DC BA 98 76 54 32 10 
   1170      5273.908 DT     0100 Rx 8  01 23 45 67 89 AB CD EF 
   1171      5278.495 DT     0001 Rx 8  49 00 34 56 DE AD BE EF 
   1172      5280.008 DT     0101 Tx 8  FE DC BA 98 76 54 32 10 
   1173      5283.924 DT     0100 Rx 8  01 23 45 67 89 AB CD EF 
   1174      5286.488 DT     0001 Rx 8  54 01 34 56 DE AD BE EF 
   1175      5289.991 DT     0101 Tx 8  FE DC BA 98 76 54 32 10 
   1176      5293.922 DT     0100 Rx 8  01 23 45 67 89 AB CD EF 
   1177      5299.988 DT     0101 Tx 8  FE DC BA 98 76 54 32 10 
   1178      5303.979 DT     0100 Rx 8  01 23 45 67 89 AB CD EF 
   1179      5308.503 DT     0001 Rx 8  55 01 34 56 DE AD BE EF 
   1180      5310.015 DT     0101 Tx 8  FE DC BA 98 76 54 32 10 
   1181      5313.903 DT     0100 Rx 8  01 23 45 67 89 AB CD EF 
   1182      5320.024 DT     0101 Tx 8  FE DC BA 98 76 54 32 10 
   1183      5323.983 DT     0100 Rx 8  01 23 45 67 89 AB CD EF 
   1184      5329.974 DT     0101 Tx 8  FE DC BA 98 76 54 32 10 
   1185      5330.618 DT     0001 Rx 8  56 02 34 56 DE AD BE EF 
   1186      5333.949 DT     0100 Rx 8  01 23 45 67 89 AB CD EF 
   1187      5339.985 DT     0101 Tx 8  FE DC BA 98 76 54 32 10 
   1188      5343.911 DT     0100 Rx 8  01 23 45 67 89 AB CD EF 
   1189      5349.979 DT     0101 Tx 8  FE DC BA 98 76 54 32 10 
   1190      5352.610 DT     0001 Rx 8  57 02 34 56 DE AD BE EF 
   1191      5353.935 DT     0100 Rx 8  01 23 45 67 89 AB CD EF 
   1192      5359.997 DT     0101 Tx 8  FE DC BA 98 76 54 32 10 
   1193      5363.939 DT     0100 Rx 8  01 23 45 67 89 AB CD EF 
   1194      5369.985 DT     0101 Tx 8  FE DC BA 98 76 54 32 10 
   1195      5373.983 DT     0100 Rx 8  01 23 45 67 89 AB CD EF 
   1196      5374.616 DT     0001 Rx 8  58 02 34 56 DE AD BE EF 
   1197      5379.995 DT     0101 Tx 8  FE DC BA 98 76 54 32 10 
   1198      5383.968 DT     0100 Rx 8  01 23 45 67 89 AB CD EF 
   1199      5390.009 DT     0101 Tx 8  FE DC BA 98 76 54 32 10 
   1200      5393.955 DT     0100 Rx 8  01 23 45 67 89 AB CD EF 
   1201      5396.606 DT     0001 Rx 8  59 02 34 56 DE AD BE EF 
   1202      5399.974 DT     0101 Tx 8  FE DC BA 98 76 54 32 10 
   1203      5403.942 DT     0100 Rx 8  01 23 45 67 89 AB CD EF 
   1204      5409.978 DT     0101 Tx 8  FE DC BA 98 76 54 32 10 
   1205      5413.984 DT     0100 Rx 8  01 23 45 67 89 AB CD EF 
   1206      5419.989 DT     0101 Tx 8  FE DC BA 98 76 54 32 10 
   1207      5423.880 DT     0100 Rx 8  01 23 45 67 89 AB CD EF 
   1208      5429.978 DT     0101 Tx 8  FE DC BA 98 76 54 32 10 
   1209      5433.842 DT     0100 Rx 8  01 23 45 67 89 AB CD EF 
   1210      5439.996 DT     0101 Tx 8  FE DC BA 98 76 54 32 10 
   1211      5443.836 DT     0100 Rx 8  01 23 45 67 89 AB CD EF 
   1212      5449.974 DT     0101 Tx 8  FE DC BA 98 76 54 32 10 
   1213      5453.880 DT     0100 Rx 8  01 23 45 67 89 AB CD EF 
   1214      5465.514 DT     0101 Tx 8  FE DC BA 98 76 54 32 10 
   1215      5465.658 DT     0100 Rx 8  01 23 45 67 89 AB CD EF 
   1216      5469.957 DT     0101 Tx 8  FE DC BA 98 76 54 32 10 
   1217      5473.334 DT     0100 Rx 8  01 23 45 67 89 AB CD EF 
   1218      5480.515 DT     0101 Tx 8  FE DC BA 98 76 54 32 10 
   1219      5483.336 DT     0100 Rx 8  01 23 45 67 89 AB CD EF 
   1220      5490.497 DT     0101 Tx 8  FE DC BA 98 76 54 32 10 
   1221      5493.295 DT     0100 Rx 8  01 23 45 67 89 AB CD EF 
   1222      5500.476 DT     0101 Tx 8  FE DC BA 98 76 54 32 10 
   1223      5503.315 DT     0100 Rx 8  01 23 45 67 89 AB CD EF 
   1224      5510.476 DT     0101 Tx 8  FE DC BA 98 76 54 32 10 
   1225      5513.312 DT     0100 Rx 8  01 23 45 67 89 AB CD EF 
   1226      5520.504 DT     0101 Tx 8  FE DC BA 98 76 54 32 10 
   1227      5523.308 DT     0100 Rx 8  01 23 45 67 89 AB CD EF 
   1228      5526.508 DT     0001 Rx 8  3E 03 34 56 DE AD BE EF 
   1229      5530.479 DT     0101 Tx 8  FE DC BA 98 76 54 32 10 
   1230      5533.322 DT     0100 Rx 8  01 23 45 67 89 AB CD EF 
   1231      5540.481 DT     0101 Tx 8  FE DC BA 98 76 54 32 10 
   1232      5543.338 DT     0100 Rx 8  01 23 45 67 89 AB CD EF 
   1233      5550.492 DT     0101 Tx 8  FE DC BA 98 76 54 32 10 
   1234      5553.380 DT     0100 Rx 8  01 23 45 67 89 AB CD EF 
   1235      5560.478 DT     0101 Tx 8  FE DC BA 98 76 54 32 10 
   1236      5563.338 DT     0100 Rx 8  01 23 45 67 89 AB CD EF 
   1237      5570.493 DT     0101 Tx 8  FE DC BA 98 76 54 32 10 
   1238      5573.336 DT     0100 Rx 8  01 23 45 67 89 AB CD EF 
   1239      5577.510 DT     0001 Rx 8  4B 03 34 56 DE AD BE EF 
   1240      5580.471 DT     0101 Tx 8  FE DC BA 98 76 54 32 10 
   1241      5583.323 DT     0100 Rx 8  01 23 45 67 89 AB CD EF 
   1242      5590.505 DT     0101 Tx 8  FE DC BA 98 76 54 32 10 
   1243      5593.345 DT     0100 Rx 8  01 23 45 67 89 AB CD EF 
   1244      5600.488 DT     0101 Tx 8  FE DC BA 98 76 54 32 10 
   1245      5603.381 DT     0100 Rx 8  01 23 45 67 89 AB CD EF 
   1246      5610.498 DT     0101 Tx 8  FE DC BA 98 76 54 32 10 
   1247      5613.371 DT     0100 Rx 8  01 23 45 67 89 AB CD EF 
   1248      5616.511 DT     0001 Rx 8  42 04 34 56 DE AD BE EF 
   1249      5620.479 DT     0101 Tx 8  FE DC BA 98 76 54 32 10 
   1250      5623.333 DT     0100 Rx 8  01 23 45 67 89 AB CD EF 
   1251      5625.510 DT     0001 Rx 8  4D 04 34 56 DE AD BE EF 
   1252      5630.477 DT     0101 Tx 8  FE DC BA 98 76 54 32 10 
   1253      5633.336 DT     0100 Rx 8  01 23 45 67 89 AB CD EF 
   1254      5638.504 DT     0001 Rx 8  43 05 34 56 DE AD BE EF 
   1255      5640.478 DT     0101 Tx 8  FE DC BA 98 76 54 32 10 
   1256      5643.294 DT     0100 Rx 8  01 23 45 67 89 AB CD EF 
   1257      5650.475 DT     0101 Tx 8  FE DC BA 98 76 54 32 10 
   1258      5653.340 DT     0100 Rx 8  01 23 45 67 89 AB CD EF 
   1259      5660.492 DT     0101 Tx 8  FE DC BA 98 76 54 32 10 
   1260      5663.298 DT     0100 Rx 8  01 23 45 67 89 AB CD EF 
   1261      5669.502 DT     0001 Rx 8  4F 05 34 56 DE AD BE EF 
   1262      5670.505 DT     0101 Tx 8  FE DC BA 98 76 54 32 10 
   1263      5672.497 DT     0001 Rx 8  5A 06 34 56 DE AD BE EF 
   1264      5673.297 DT     0100 Rx 8  01 23 45 67 89 AB CD EF 
   1265      5680.486 DT     0101 Tx 8  FE DC BA 98 76 54 32 10 
   1266      5683.297 DT     0100 Rx 8  01 23 45 67 89 AB CD EF 
   1267      5690.497 DT     0101 Tx 8  FE DC BA 98 76 54 32 10 
   1268      5693.371 DT     0100 Rx 8  01 23 45 67 89 AB CD EF 
   1269      5695.506 DT     0001 Rx 8  5B 07 34 56 DE AD BE EF 
   1270      5700.504 DT     0101 Tx 8  FE DC BA 98 76 54 32 10 
   1271      5703.385 DT     0100 Rx 8  01 23 45 67 89 AB CD EF 
   1272      5710.485 DT     0101 Tx 8  FE DC BA 98 76 54 32 10 
   1273      5713.335 DT     0100 Rx 8  01 23 45 67 89 AB CD EF 
   1274      5718.503 DT     0001 Rx 8  5C 08 34 56 DE AD BE EF 
   1275      5720.506 DT     0101 Tx 8  FE DC BA 98 76 54 32 10 
   1276      5723.339 DT     0100 Rx 8  01 23 45 67 89 AB CD EF 
   1277      5730.475 DT     0101 Tx 8  FE DC BA 98 76 54 32 10 
   1278      5733.339 DT     0100 Rx 8  01 23 45 67 89 AB CD EF 
   1279      5740.487 DT     0101 Tx 8  FE DC BA 98 76 54 32 10 
   1280      5741.492 DT     0001 Rx 8  5D 08 34 56 DE AD BE EF 
   1281      5743.331 DT     0100 Rx 8  01 23 45 67 89 AB CD EF 
   1282      5750.483 DT     0101 Tx 8  FE DC BA 98 76 54 32 10 
   1283      5753.338 DT     0100 Rx 8  01 23 45 67 89 AB CD EF 
   1284      5760.478 DT     0101 Tx 8  FE DC BA 98 76 54 32 10 
   1285      5763.302 DT     0100 Rx 8  01 23 45 67 89 AB CD EF 
   1286      5764.495 DT     0001 Rx 8  5E 08 34 56 DE AD BE EF 
   1287      5770.482 DT     0101 Tx 8  FE DC BA 98 76 54 32 10 
   1288      5773.315 DT     0100 Rx 8  01 23 45 67 89 AB CD EF 
   1289      5780.476 DT     0101 Tx 8  FE DC BA 98 76 54 32 10 
   1290      5783.329 DT     0100 Rx 8  01 23 45 67 89 AB CD EF 
   1291      5787.508 DT     0001 Rx 8  5F 08 34 56 DE AD BE EF 
   1292      5790.480 DT     0101 Tx 8  FE DC BA 98 76 54 32 10 
   1293      5793.342 DT     0100 Rx 8  01 23 45 67 89 AB CD EF 
   1294      5800.484 DT     0101 Tx 8  FE DC BA 98 76 54 32 10 
   1295      5803.324 DT     0100 Rx 8  01 23 45 67 89 AB CD EF 
   1296      5810.475 DT     0101 Tx 8  FE DC BA 98 76 54 32 10 
   1297      5813.326 DT     0100 Rx 8  01 23 45 67 89 AB CD EF 
   1298      5820.486 DT     0101 Tx 8  FE DC BA 98 76 54 32 10 
   1299      5823.366 DT     0100 Rx 8  01 23 45 67 89 AB CD EF 
   1300      5830.485 DT     0101 Tx 8  FE DC BA 98 76 54 32 10 
   1301      5833.340 DT     0100 Rx 8  01 23 45 67 89 AB CD EF 
   1302      5840.008 DT     0101 Tx 8  FE DC BA 98 76 54 32 10 
   1303      5843.452 DT     0100 Rx 8  01 23 45 67 89 AB CD EF 
   1304      5850.638 DT     0101 Tx 8  FE DC BA 98 76 54 32 10 
   1305      5853.458 DT     0100 Rx 8  01 23 45 67 89 AB CD EF 
   1306      5860.621 DT     0101 Tx 8  FE DC BA 98 76 54 32 10 
   1307      5863.464 DT     0100 Rx 8  01 23 45 67 89 AB CD EF 
   1308      5870.638 DT     0101 Tx 8  FE DC BA 98 76 54 32 10 
   1309      5873.452 DT     0100 Rx 8  01 23 45 67 89 AB CD EF 
   1310      5880.639 DT     0101 Tx 8  FE DC BA 98 76 54 32 10 
   1311      5883.501 DT     0100 Rx 8  01 23 45 67 89 AB CD EF 
   1312      5890.655 DT     0101 Tx 8  FE DC BA 98 76 54 32 10 
   1313      5893.481 DT     0100 Rx 8  01 23 45 67 89 AB CD EF 
   1314      5900.613 DT     0101 Tx 8  FE DC BA 98 76 54 32 10 
   1315      5903.452 DT     0100 Rx 8  01 23 45 67 89 AB CD EF 
   1316      5910.633 DT     0101 Tx 8  FE DC BA 98 76 54 32 10 
   1317      5913.772 DT     0100 Rx 8  01 23 45 67 89 AB CD EF 
   1318      5920.644 DT     0101 Tx 8  FE DC BA 98 76 54 32 10 
   1319      5923.788 DT     0100 Rx 8  01 23 45 67 89 AB CD EF 
   1320      5930.974 DT     0101 Tx 8  FE DC BA 98 76 54 32 10 
   1321      5933.460 DT     0100 Rx 8  01 23 45 67 89 AB CD EF 
   1322      5940.630 DT     0101 Tx 8  FE DC BA 98 76 54 32 10 
   1323      5943.490 DT     0100 Rx 8  01 23 45 67 89 AB CD EF 
   1324      5950.732 DT     0101 Tx 8  FE DC BA 98 76 54 32 10 
   1325      5953.556 DT     0100 Rx 8  01 23 45 67 89 AB CD EF 
   1326      5959.840 DT     0101 Tx 8  FE DC BA 98 76 54 32 10 
   1327      5963.786 DT     0100 Rx 8  01 23 45 67 89 AB CD EF 
   1328      5970.936 DT     0101 Tx 8  FE DC BA 98 76 54 32 10 
   1329      5973.510 DT     0100 Rx 8  01 23 45 67 89 AB CD EF 
   1330      5979.929 DT     0101 Tx 8  FE DC BA 98 76 54 32 10 
   1331      5983.496 DT     0100 Rx 8  01 23 45 67 89 AB CD EF 
   1332      5990.644 DT     0101 Tx 8  FE DC BA 98 76 54 32 10 
   1333      5990.480 DT     0001 Rx 8  52 09 34 56 DE AD BE EF 
   1334      5993.534 DT     0100 Rx 8  01 23 45 67 89 AB CD EF 
   1335      6000.046 DT     0101 Tx 8  FE DC BA 98 76 54 32 10 
   1336      6003.642 DT     0100 Rx 8  01 23 45 67 89 AB CD EF 
   1337      6010.744 DT     0101 Tx 8  FE DC BA 98 76 54 32 10 
   1338      6013.735 DT     0100 Rx 8  01 23 45 67 89 AB CD EF 
   1339      6020.692 DT     0101 Tx 8  FE DC BA 98 76 54 32 10 
   1340      6023.641 DT     0100 Rx 8  01 23 45 67 89 AB CD EF 
   1341      6029.929 DT     0101 Tx 8  FE DC BA 98 76 54 32 10 
   1342      6033.531 DT     0100 Rx 8  01 23 45 67 89 AB CD EF 
   1343      6040.680 DT     0101 Tx 8  FE DC BA 98 76 54 32 10 
   1344      6043.549 DT     0100 Rx 8  01 23 45 67 89 AB CD EF 
   1345      6050.643 DT     0101 Tx 8  FE DC BA 98 76 54 32 10 
   1346      6053.480 DT     0100 Rx 8  01 23 45 67 89 AB CD EF 
   1347      6060.626 DT     0101 Tx 8  FE DC BA 98 76 54 32 10 
   1348      6062.490 DT     0001 Rx 8  60 09 34 56 DE AD BE EF 
   1349      6063.455 DT     0100 Rx 8  01 23 45 67 89 AB CD EF 
   1350      6070.622 DT     0101 Tx 8  FE DC BA 98 76 54 32 10 
   1351      6073.459 DT     0100 Rx 8  01 23 45 67 89 AB CD EF 
   1352      6080.648 DT     0101 Tx 8  FE DC BA 98 76 54 32 10 
   1353      6083.453 DT     0100 Rx 8  01 23 45 67 89 AB CD EF 
   1354      6085.492 DT     0001 Rx 8  61 09 34 56 DE AD BE EF 
   1355      6090.614 DT     0101 Tx 8  FE DC BA 98 76 54 32 10 
   1356      6093.454 DT     0100 Rx 8  01 23 45 67 89 AB CD EF 
   1357      6100.631 DT     0101 Tx 8  FE DC BA 98 76 54 32 10 
   1358      6103.470 DT     0100 Rx 8  01 23 45 67 89 AB CD EF 
   1359      6108.492 DT     0001 Rx 8  62 09 34 56 DE AD BE EF 
   1360      6110.676 DT     0101 Tx 8  FE DC BA 98 76 54 32 10 
   1361      6113.490 DT     0100 Rx 8  01 23 45 67 89 AB CD EF 
   1362      6120.637 DT     0101 Tx 8  FE DC BA 98 76 54 32 10 
   1363      6123.454 DT     0100 Rx 8  01 23 45 67 89 AB CD EF 
   1364      6130.631 DT     0101 Tx 8  FE DC BA 98 76 54 32 10 
   1365      6133.520 DT     0100 Rx 8  01 23 45 67 89 AB CD EF 
   1366      6140.637 DT     0101 Tx 8  FE DC BA 98 76 54 32 10 
   1367      6143.494 DT     0100 Rx 8  01 23 45 67 89 AB CD EF 
   1368      6150.619 DT     0101 Tx 8  FE DC BA 98 76 54 32 10 
   1369      6153.495 DT     0100 Rx 8  01 23 45 67 89 AB CD EF 
   1370      6160.622 DT     0101 Tx 8  FE DC BA 98 76 54 32 10 
   1371      6163.508 DT     0100 Rx 8  01 23 45 67 89 AB CD EF 
   1372      6170.631 DT     0101 Tx 8  FE DC BA 98 76 54 32 10 
   1373      6173.532 DT     0100 Rx 8  01 23 45 67 89 AB CD EF 
   1374      6180.652 DT     0101 Tx 8  FE DC BA 98 76 54 32 10 
   1375      6183.498 DT     0100 Rx 8  01 23 45 67 89 AB CD EF 
   1376      6190.658 DT     0101 Tx 8  FE DC BA 98 76 54 32 10 
   1377      6193.512 DT     0100 Rx 8  01 23 45 67 89 AB CD EF 
   1378      6200.631 DT     0101 Tx 8  FE DC BA 98 76 54 32 10 
   1379      6203.464 DT     0100 Rx 8  01 23 45 67 89 AB CD EF 
   1380      6210.614 DT     0101 Tx 8  FE DC BA 98 76 54 32 10 
   1381      6213.500 DT     0100 Rx 8  01 23 45 67 89 AB CD EF 
   1382      6220.650 DT     0101 Tx 8  FE DC BA 98 76 54 32 10 
   1383      6223.520 DT     0100 Rx 8  01 23 45 67 89 AB CD EF 
   1384      6230.639 DT     0101 Tx 8  FE DC BA 98 76 54 32 10 
   1385      6233.444 DT     0100 Rx 8  01 23 45 67 89 AB CD EF 
   1386      6240.619 DT     0101 Tx 8  FE DC BA 98 76 54 32 10 
   1387      6243.444 DT     0100 Rx 8  01 23 45 67 89 AB CD EF 
   1388      6250.621 DT     0101 Tx 8  FE DC BA 98 76 54 32 10 
   1389      6253.452 DT     0100 Rx 8  01 23 45 67 89 AB CD EF 
   1390      6260.617 DT     0101 Tx 8  FE DC BA 98 76 54 32 10 
   1391      6263.448 DT     0100 Rx 8  01 23 45 67 89 AB CD EF 
   1392      6270.640 DT     0101 Tx 8  FE DC BA 98 76 54 32 10 
   1393      6273.498 DT     0100 Rx 8  01 23 45 67 89 AB CD EF 
   1394      6279.480 DT     0001 Rx 8  49 00 34 56 DE AD BE EF 
   1395      6280.622 DT     0101 Tx 8  FE DC BA 98 76 54 32 10 
   1396      6283.458 DT     0100 Rx 8  01 23 45 67 89 AB CD EF 
   1397      6290.623 DT     0101 Tx 8  FE DC BA 98 76 54 32 10 
   1398      6293.470 DT     0100 Rx 8  01 23 45 67 89 AB CD EF 
   1399      6300.618 DT     0101 Tx 8  FE DC BA 98 76 54 32 10 
   1400      6303.466 DT     0100 Rx 8  01 23 45 67 89 AB CD EF 
   1401      6310.614 DT     0101 Tx 8  FE DC BA 98 76 54 32 10 
   1402      6310.692 DT     0001 Rx 8  55 00 34 56 DE AD BE EF 
   1403      6313.492 DT     0100 Rx 8  01 23 45 67 89 AB CD EF 
   1404      6320.654 DT     0101 Tx 8  FE DC BA 98 76 54 32 10 
   1405      6323.456 DT     0100 Rx 8  01 23 45 67 89 AB CD EF 
   1406      6330.613 DT     0101 Tx 8  FE DC BA 98 76 54 32 10 
   1407      6333.538 DT     0100 Rx 8  01 23 45 67 89 AB CD EF 
   1408      6340.631 DT     0101 Tx 8  FE DC BA 98 76 54 32 10 
   1409      6343.464 DT     0100 Rx 8  01 23 45 67 89 AB CD EF 
   1410      6350.624 DT     0101 Tx 8  FE DC BA 98 76 54 32 10 
   1411      6353.493 DT     0100 Rx 8  01 23 45 67 89 AB CD EF 
   1412      6360.616 DT     0101 Tx 8  FE DC BA 98 76 54 32 10 
   1413      6363.465 DT     0100 Rx 8  01 23 45 67 89 AB CD EF 
   1414      6370.632 DT     0101 Tx 8  FE DC BA 98 76 54 32 10 
   1415      6373.499 DT     0100 Rx 8  01 23 45 67 89 AB CD EF 
   1416      6380.620 DT     0101 Tx 8  FE DC BA 98 76 54 32 10 
   1417      6383.505 DT     0100 Rx 8  01 23 45 67 89 AB CD EF 
   1418      6385.482 DT     0001 Rx 8  63 01 34 56 DE AD BE EF 
   1419      6390.618 DT     0101 Tx 8  FE DC BA 98 76 54 32 10 
   1420      6393.502 DT     0100 Rx 8  01 23 45 67 89 AB CD EF 
   1421      6398.482 DT     0001 Rx 8  59 01 34 56 DE AD BE EF 
   1422      6401.171 DT     0101 Tx 8  FE DC BA 98 76 54 32 10 
   1423      6404.422 DT     0100 Rx 8  01 23 45 67 89 AB CD EF 
   1424      6407.482 DT     0001 Rx 8  64 02 34 56 DE AD BE EF 
   1425      6409.979 DT     0101 Tx 8  FE DC BA 98 76 54 32 10 
   1426      6413.841 DT     0100 Rx 8  01 23 45 67 89 AB CD EF 
   1427      6419.977 DT     0101 Tx 8  FE DC BA 98 76 54 32 10 
   1428      6423.883 DT     0100 Rx 8  01 23 45 67 89 AB CD EF 
   1429      6429.953 DT     0101 Tx 8  FE DC BA 98 76 54 32 10 
   1430      6430.576 DT     0001 Rx 8  65 02 34 56 DE AD BE EF 
   1431      6433.909 DT     0100 Rx 8  01 23 45 67 89 AB CD EF 
   1432      6439.968 DT     0101 Tx 8  FE DC BA 98 76 54 32 10 
   1433      6443.875 DT     0100 Rx 8  01 23 45 67 89 AB CD EF 
   1434      6449.968 DT     0101 Tx 8  FE DC BA 98 76 54 32 10 
   1435      6452.576 DT     0001 Rx 8  66 02 34 56 DE AD BE EF 
   1436      6453.984 DT     0100 Rx 8  01 23 45 67 89 AB CD EF 
   1437      6459.955 DT     0101 Tx 8  FE DC BA 98 76 54 32 10 
   1438      6463.932 DT     0100 Rx 8  01 23 45 67 89 AB CD EF 
   1439      6469.952 DT     0101 Tx 8  FE DC BA 98 76 54 32 10 
   1440      6473.918 DT     0100 Rx 8  01 23 45 67 89 AB CD EF 
   1441      6479.975 DT     0101 Tx 8  FE DC BA 98 76 54 32 10 
   1442      6483.904 DT     0100 Rx 8  01 23 45 67 89 AB CD EF 
   1443      6489.983 DT     0101 Tx 8  FE DC BA 98 76 54 32 10 
   1444      6493.908 DT     0100 Rx 8  01 23 45 67 89 AB CD EF 
   1445      6499.958 DT     0101 Tx 8  FE DC BA 98 76 54 32 10 
   1446      6503.912 DT     0100 Rx 8  01 23 45 67 89 AB CD EF 
   1447      6509.962 DT     0101 Tx 8  FE DC BA 98 76 54 32 10 
   1448      6513.918 DT     0100 Rx 8  01 23 45 67 89 AB CD EF 
   1449      6519.989 DT     0101 Tx 8  FE DC BA 98 76 54 32 10 
   1450      6523.944 DT     0100 Rx 8  01 23 45 67 89 AB CD EF 
   1451      6529.974 DT     0101 Tx 8  FE DC BA 98 76 54 32 10 
   1452      6533.910 DT     0100 Rx 8  01 23 45 67 89 AB CD EF 
   1453      6539.977 DT     0101 Tx 8  FE DC BA 98 76 54 32 10 
   1454      6543.917 DT     0100 Rx 8  01 23 45 67 89 AB CD EF 
   1455      6549.966 DT     0101 Tx 8  FE DC BA 98 76 54 32 10 
   1456      6553.947 DT     0100 Rx 8  01 23 45 67 89 AB CD EF 
   1457      6559.948 DT     0101 Tx 8  FE DC BA 98 76 54 32 10 
   1458      6563.919 DT     0100 Rx 8  01 23 45 67 89 AB CD EF 
   1459      6569.950 DT     0101 Tx 8  FE DC BA 98 76 54 32 10 
   1460      6573.899 DT     0100 Rx 8  01 23 45 67 89 AB CD EF 
   1461      6578.562 DT     0001 Rx 8  4B 03 34 56 DE AD BE EF 
   1462      6579.972 DT     0101 Tx 8  FE DC BA 98 76 54 32 10 
   1463      6583.920 DT     0100 Rx 8  01 23 45 67 89 AB CD EF 
   1464      6589.989 DT     0101 Tx 8  FE DC BA 98 76 54 32 10 
   1465      6593.934 DT     0100 Rx 8  01 23 45 67 89 AB CD EF 
   1466      6599.955 DT     0101 Tx 8  FE DC BA 98 76 54 32 10 
   1467      6603.914 DT     0100 Rx 8  01 23 45 67 89 AB CD EF 
   1468      6610.321 DT     0101 Tx 8  FE DC BA 98 76 54 32 10 
   1469      6613.302 DT     0100 Rx 8  01 23 45 67 89 AB CD EF 
   1470      6620.427 DT     0101 Tx 8  FE DC BA 98 76 54 32 10 
   1471      6623.308 DT     0100 Rx 8  01 23 45 67 89 AB CD EF 
   1472      6626.563 DT     0001 Rx 8  4D 04 34 56 DE AD BE EF 
   1473      6630.378 DT     0101 Tx 8  FE DC BA 98 76 54 32 10 
   1474      6633.355 DT     0100 Rx 8  01 23 45 67 89 AB CD EF 
   1475      6640.377 DT     0101 Tx 8  FE DC BA 98 76 54 32 10 
   1476      6643.313 DT     0100 Rx 8  01 23 45 67 89 AB CD EF 
   1477      6650.399 DT     0101 Tx 8  FE DC BA 98 76 54 32 10 
   1478      6653.323 DT     0100 Rx 8  01 23 45 67 89 AB CD EF 
   1479      6660.374 DT     0101 Tx 8  FE DC BA 98 76 54 32 10 
   1480      6663.299 DT     0100 Rx 8  01 23 45 67 89 AB CD EF 
   1481      6670.391 DT     0101 Tx 8  FE DC BA 98 76 54 32 10 
   1482      6671.571 DT     0001 Rx 8  4F 04 34 56 DE AD BE EF 
   1483      6673.327 DT     0100 Rx 8  01 23 45 67 89 AB CD EF 
   1484      6673.569 DT     0001 Rx 8  5A 04 34 56 DE AD BE EF 
   1485      6680.368 DT     0101 Tx 8  FE DC BA 98 76 54 32 10 
   1486      6683.344 DT     0100 Rx 8  01 23 45 67 89 AB CD EF 
   1487      6690.390 DT     0101 Tx 8  FE DC BA 98 76 54 32 10 
   1488      6693.356 DT     0100 Rx 8  01 23 45 67 89 AB CD EF 
   1489      6697.572 DT     0001 Rx 8  5B 05 34 56 DE AD BE EF 
   1490      6700.386 DT     0101 Tx 8  FE DC BA 98 76 54 32 10 
   1491      6703.306 DT     0100 Rx 8  01 23 45 67 89 AB CD EF 
   1492      6710.370 DT     0101 Tx 8  FE DC BA 98 76 54 32 10 
   1493      6713.302 DT     0100 Rx 8  01 23 45 67 89 AB CD EF 
   1494      6720.411 DT     0101 Tx 8  FE DC BA 98 76 54 32 10 
   1495      6723.346 DT     0100 Rx 8  01 23 45 67 89 AB CD EF 
   1496      6726.687 DT     0001 Rx 8  67 06 34 56 DE AD BE EF 
   1497      6730.388 DT     0101 Tx 8  FE DC BA 98 76 54 32 10 
   1498      6733.403 DT     0100 Rx 8  01 23 45 67 89 AB CD EF 
   1499      6740.378 DT     0101 Tx 8  FE DC BA 98 76 54 32 10 
   1500      6743.363 DT     0100 Rx 8  01 23 45 67 89 AB CD EF 
   1501      6750.400 DT     0101 Tx 8  FE DC BA 98 76 54 32 10 
   1502      6749.684 DT     0001 Rx 8  68 06 34 56 DE AD BE EF 
   1503      6753.335 DT     0100 Rx 8  01 23 45 67 89 AB CD EF 
   1504      6760.389 DT     0101 Tx 8  FE DC BA 98 76 54 32 10 
   1505      6763.315 DT     0100 Rx 8  01 23 45 67 89 AB CD EF 
